EC-Lab ASCII FILE
Nb header lines : 73                          

Galvano Electrochemical Impedance Spectroscopy

Run on channel : 13 (SN 15939)
User : 
CE vs. WE compliance from -10 V to 10 V
Electrode connection : standard
Ewe ctrl range : min = -10.00 V, max = 10.00 V
Safety Limits :
	Ewe min = -3.50 V
	Ewe max = 3.50 V
	for t > 10 ms
	Do not start on E overload
Acquisition started on : 03/03/2021 20:40:41
Saved on :
	File : 210303_Li_thick_PEO_SCE_0.25mA_cm2_GEIS_3_electrodes_05_GEIS_C13.mpr
	Directory : C:\Users\lab131\Desktop\VMP3 local\Francesco\Solidify\SCE\Li thick coated\3 electrode\
	Host : 192.109.209.127
Device : VMP3 (SN 1083)
Address : 192.109.209.128
EC-Lab for windows v11.33 (software)
Internet server v11.32 (firmware)
Command interpretor v11.33 (firmware)
Electrode material : LFP MBE3
Initial state : 
Electrolyte : WIS pH 6
Comments : 25°C
Mass of active material : 0.001 mg
 at x = 0.000
Molecular weight of active material (at x = 0) : 0.001 g/mol
Atomic weight of intercalated ion : 0.001 g/mol
Acquisition started at : xo = 0.000
Number of e- transfered per intercalated ion : 1
for DX = 1, DQ = 26.802 mA.h
Battery capacity : 942.500 µA.h
Electrode surface area : 1.130 cm²
Characteristic mass : 5.544 mg
Record Ece
Cycle Definition : Charge/Discharge alternance
Mode                Single sine         
Is                  0.380               
unit Is             mA                  
vs.                 <None>              
tIs (h:m:s)         0:00:30.0000        
record              1                   
dE (mV)             0.000               
dt (s)              1.000               
fi                  1.000               
unit fi             MHz                 
ff                  0.200               
unit ff             Hz                  
Nd                  6                   
Points              per decade          
spacing             Logarithmic         
Ia/Va               Ia                  
Ia                  0.050               
unit  Ia            mA                  
va pourcent         0.10                
pw                  0.10                
Na                  2                   
corr                0                   
E range min (V)     -10.000             
E range max (V)     10.000              
I Range             1 mA                
Bandwidth           5                   
nc cycles           600                 
goto Ns'            0                   
nr cycles           0                   
inc. cycle          0                   

freq/Hz	Re(Z)/Ohm	-Im(Z)/Ohm	|Z|/Ohm	Phase(Z)/deg	time/s	<Ewe>/V	<I>/mA	Cs/µF	Cp/µF	cycle number	|Ewe|/V	|I|/A	I Range	(Q-Qo)/mA.h	<Ece>/V	|Ece|/V	Phase(Zce)/deg	|Zce|/Ohm	Re(Zce)/Ohm	-Im(Zce)/Ohm	Phase(Zwe-ce)/deg	|Zwe-ce|/Ohm	Re(Zwe-ce)/Ohm	-Im(Zwe-ce)/Ohm	Re(Y)/Ohm-1	Im(Y)/Ohm-1	|Y|/Ohm-1	Phase(Y)/deg	dq/mA.h	x	
0.0000000E+000	0.0000000E+000	0.0000000E+000	0.0000000E+000	0.0000000E+000	4.532292049957649E+004	5.2780401E-002	3.8056168E-001	0.0000000E+000	0.0000000E+000	1.000000000000000E+000	0.0000000E+000	0.0000000E+000	12	9.152318010119295E-005	-7.6399624E-002	0.0000000E+000	0.0000000E+000	0.0000000E+000	0.0000000E+000	0.0000000E+000	0.0000000E+000	0.0000000E+000	0.0000000E+000	0.0000000E+000	0.0000000E+000	0.0000000E+000	0.0000000E+000	0.0000000E+000	9.152318010119295E-005	-3.414852903799897E-006
0.0000000E+000	0.0000000E+000	0.0000000E+000	0.0000000E+000	0.0000000E+000	4.532392049962678E+004	5.3868279E-002	3.8055956E-001	0.0000000E+000	0.0000000E+000	1.000000000000000E+000	0.0000000E+000	0.0000000E+000	12	1.835974656392937E-004	-7.8309178E-002	0.0000000E+000	0.0000000E+000	0.0000000E+000	0.0000000E+000	0.0000000E+000	0.0000000E+000	0.0000000E+000	0.0000000E+000	0.0000000E+000	0.0000000E+000	0.0000000E+000	0.0000000E+000	0.0000000E+000	9.207428553810072E-005	-6.850268292419964E-006
0.0000000E+000	0.0000000E+000	0.0000000E+000	0.0000000E+000	0.0000000E+000	4.532492049967707E+004	5.4697279E-002	3.8057184E-001	0.0000000E+000	0.0000000E+000	1.000000000000000E+000	0.0000000E+000	0.0000000E+000	12	2.763723911091284E-004	-7.8232795E-002	0.0000000E+000	0.0000000E+000	0.0000000E+000	0.0000000E+000	0.0000000E+000	0.0000000E+000	0.0000000E+000	0.0000000E+000	0.0000000E+000	0.0000000E+000	0.0000000E+000	0.0000000E+000	0.0000000E+000	9.277492546983475E-005	-1.031182549891343E-005
0.0000000E+000	0.0000000E+000	0.0000000E+000	0.0000000E+000	0.0000000E+000	4.532592049972736E+004	5.5391781E-002	3.8057038E-001	0.0000000E+000	0.0000000E+000	1.000000000000000E+000	0.0000000E+000	0.0000000E+000	12	3.688298970365884E-004	-7.9206660E-002	0.0000000E+000	0.0000000E+000	0.0000000E+000	0.0000000E+000	0.0000000E+000	0.0000000E+000	0.0000000E+000	0.0000000E+000	0.0000000E+000	0.0000000E+000	0.0000000E+000	0.0000000E+000	0.0000000E+000	9.245750592745997E-005	-1.376153935550579E-005
0.0000000E+000	0.0000000E+000	0.0000000E+000	0.0000000E+000	0.0000000E+000	4.532692049977765E+004	5.6000106E-002	3.8056982E-001	0.0000000E+000	0.0000000E+000	1.000000000000000E+000	0.0000000E+000	0.0000000E+000	12	4.614351552471764E-004	-8.0027767E-002	0.0000000E+000	0.0000000E+000	0.0000000E+000	0.0000000E+000	0.0000000E+000	0.0000000E+000	0.0000000E+000	0.0000000E+000	0.0000000E+000	0.0000000E+000	0.0000000E+000	0.0000000E+000	0.0000000E+000	9.260525821058806E-005	-1.721676604843671E-005
0.0000000E+000	0.0000000E+000	0.0000000E+000	0.0000000E+000	0.0000000E+000	4.532792049982795E+004	5.6560725E-002	3.8056290E-001	0.0000000E+000	0.0000000E+000	1.000000000000000E+000	0.0000000E+000	0.0000000E+000	12	5.539119107609699E-004	-8.0486059E-002	0.0000000E+000	0.0000000E+000	0.0000000E+000	0.0000000E+000	0.0000000E+000	0.0000000E+000	0.0000000E+000	0.0000000E+000	0.0000000E+000	0.0000000E+000	0.0000000E+000	0.0000000E+000	0.0000000E+000	9.247675551379348E-005	-2.066719813297651E-005
0.0000000E+000	0.0000000E+000	0.0000000E+000	0.0000000E+000	0.0000000E+000	4.532892049987824E+004	5.7080377E-002	3.8057208E-001	0.0000000E+000	0.0000000E+000	1.000000000000000E+000	0.0000000E+000	0.0000000E+000	12	6.455240461590066E-004	-8.1058927E-002	0.0000000E+000	0.0000000E+000	0.0000000E+000	0.0000000E+000	0.0000000E+000	0.0000000E+000	0.0000000E+000	0.0000000E+000	0.0000000E+000	0.0000000E+000	0.0000000E+000	0.0000000E+000	0.0000000E+000	9.161213539803667E-005	-2.408537007850331E-005
0.0000000E+000	0.0000000E+000	0.0000000E+000	0.0000000E+000	0.0000000E+000	4.532992049992853E+004	5.7563193E-002	3.8057637E-001	0.0000000E+000	0.0000000E+000	1.000000000000000E+000	0.0000000E+000	0.0000000E+000	12	7.378772791401069E-004	-8.1097119E-002	0.0000000E+000	0.0000000E+000	0.0000000E+000	0.0000000E+000	0.0000000E+000	0.0000000E+000	0.0000000E+000	0.0000000E+000	0.0000000E+000	0.0000000E+000	0.0000000E+000	0.0000000E+000	0.0000000E+000	9.235323298110033E-005	-2.753119337127052E-005
0.0000000E+000	0.0000000E+000	0.0000000E+000	0.0000000E+000	0.0000000E+000	4.533092049997882E+004	5.8005050E-002	3.8055098E-001	0.0000000E+000	0.0000000E+000	1.000000000000000E+000	0.0000000E+000	0.0000000E+000	12	8.297803129039433E-004	-8.1211686E-002	0.0000000E+000	0.0000000E+000	0.0000000E+000	0.0000000E+000	0.0000000E+000	0.0000000E+000	0.0000000E+000	0.0000000E+000	0.0000000E+000	0.0000000E+000	0.0000000E+000	0.0000000E+000	0.0000000E+000	9.190303376383640E-005	-3.096021912594233E-005
0.0000000E+000	0.0000000E+000	0.0000000E+000	0.0000000E+000	0.0000000E+000	4.533192050002911E+004	5.8445845E-002	3.8057277E-001	0.0000000E+000	0.0000000E+000	1.000000000000000E+000	0.0000000E+000	0.0000000E+000	12	9.218789218809527E-004	-8.2032792E-002	0.0000000E+000	0.0000000E+000	0.0000000E+000	0.0000000E+000	0.0000000E+000	0.0000000E+000	0.0000000E+000	0.0000000E+000	0.0000000E+000	0.0000000E+000	0.0000000E+000	0.0000000E+000	0.0000000E+000	9.209860897700932E-005	-3.439654205477129E-005
0.0000000E+000	0.0000000E+000	0.0000000E+000	0.0000000E+000	0.0000000E+000	4.533292050007940E+004	5.8876585E-002	3.8056585E-001	0.0000000E+000	0.0000000E+000	1.000000000000000E+000	0.0000000E+000	0.0000000E+000	12	1.014039258036125E-003	-8.1956409E-002	0.0000000E+000	0.0000000E+000	0.0000000E+000	0.0000000E+000	0.0000000E+000	0.0000000E+000	0.0000000E+000	0.0000000E+000	0.0000000E+000	0.0000000E+000	0.0000000E+000	0.0000000E+000	0.0000000E+000	9.216033615517280E-005	-3.783516810761060E-005
0.0000000E+000	0.0000000E+000	0.0000000E+000	0.0000000E+000	0.0000000E+000	4.533392050012969E+004	5.9301343E-002	3.8056895E-001	0.0000000E+000	0.0000000E+000	1.000000000000000E+000	0.0000000E+000	0.0000000E+000	12	1.106031210880290E-003	-8.2109176E-002	0.0000000E+000	0.0000000E+000	0.0000000E+000	0.0000000E+000	0.0000000E+000	0.0000000E+000	0.0000000E+000	0.0000000E+000	0.0000000E+000	0.0000000E+000	0.0000000E+000	0.0000000E+000	0.0000000E+000	9.199195284416450E-005	-4.126751155272242E-005
0.0000000E+000	0.0000000E+000	0.0000000E+000	0.0000000E+000	0.0000000E+000	4.533492050017999E+004	5.9734851E-002	3.8055936E-001	0.0000000E+000	0.0000000E+000	1.000000000000000E+000	0.0000000E+000	0.0000000E+000	12	1.198042004226063E-003	-8.2586564E-002	0.0000000E+000	0.0000000E+000	0.0000000E+000	0.0000000E+000	0.0000000E+000	0.0000000E+000	0.0000000E+000	0.0000000E+000	0.0000000E+000	0.0000000E+000	0.0000000E+000	0.0000000E+000	0.0000000E+000	9.201079334577342E-005	-4.470055796228059E-005
0.0000000E+000	0.0000000E+000	0.0000000E+000	0.0000000E+000	0.0000000E+000	4.533592050023028E+004	6.0173631E-002	3.8055632E-001	0.0000000E+000	0.0000000E+000	1.000000000000000E+000	0.0000000E+000	0.0000000E+000	12	1.289586910227579E-003	-8.2815707E-002	0.0000000E+000	0.0000000E+000	0.0000000E+000	0.0000000E+000	0.0000000E+000	0.0000000E+000	0.0000000E+000	0.0000000E+000	0.0000000E+000	0.0000000E+000	0.0000000E+000	0.0000000E+000	0.0000000E+000	9.154490600151539E-005	-4.811622148863230E-005
0.0000000E+000	0.0000000E+000	0.0000000E+000	0.0000000E+000	0.0000000E+000	4.533692050028057E+004	6.0588341E-002	3.8056129E-001	0.0000000E+000	0.0000000E+000	1.000000000000000E+000	0.0000000E+000	0.0000000E+000	12	1.381386743335319E-003	-8.2662947E-002	0.0000000E+000	0.0000000E+000	0.0000000E+000	0.0000000E+000	0.0000000E+000	0.0000000E+000	0.0000000E+000	0.0000000E+000	0.0000000E+000	0.0000000E+000	0.0000000E+000	0.0000000E+000	0.0000000E+000	9.179983310773974E-005	-5.154139668807039E-005
0.0000000E+000	0.0000000E+000	0.0000000E+000	0.0000000E+000	0.0000000E+000	4.533792050033086E+004	6.0978733E-002	3.8055080E-001	0.0000000E+000	0.0000000E+000	1.000000000000000E+000	0.0000000E+000	0.0000000E+000	12	1.472613210659316E-003	-8.2815707E-002	0.0000000E+000	0.0000000E+000	0.0000000E+000	0.0000000E+000	0.0000000E+000	0.0000000E+000	0.0000000E+000	0.0000000E+000	0.0000000E+000	0.0000000E+000	0.0000000E+000	0.0000000E+000	0.0000000E+000	9.122646732399723E-005	-5.494517883921854E-005
0.0000000E+000	0.0000000E+000	0.0000000E+000	0.0000000E+000	0.0000000E+000	4.533892050038115E+004	6.1319672E-002	3.8056362E-001	0.0000000E+000	0.0000000E+000	1.000000000000000E+000	0.0000000E+000	0.0000000E+000	12	1.564329040655798E-003	-8.3063953E-002	0.0000000E+000	0.0000000E+000	0.0000000E+000	0.0000000E+000	0.0000000E+000	0.0000000E+000	0.0000000E+000	0.0000000E+000	0.0000000E+000	0.0000000E+000	0.0000000E+000	0.0000000E+000	0.0000000E+000	9.171582999648259E-005	-5.836721976963223E-005
0.0000000E+000	0.0000000E+000	0.0000000E+000	0.0000000E+000	0.0000000E+000	4.533992050043144E+004	6.1642136E-002	3.8057473E-001	0.0000000E+000	0.0000000E+000	1.000000000000000E+000	0.0000000E+000	0.0000000E+000	12	1.656026403057512E-003	-8.3121240E-002	0.0000000E+000	0.0000000E+000	0.0000000E+000	0.0000000E+000	0.0000000E+000	0.0000000E+000	0.0000000E+000	0.0000000E+000	0.0000000E+000	0.0000000E+000	0.0000000E+000	0.0000000E+000	0.0000000E+000	9.169736240171342E-005	-6.178857164925514E-005
0.0000000E+000	0.0000000E+000	0.0000000E+000	0.0000000E+000	0.0000000E+000	4.534092050048173E+004	6.1938457E-002	3.8056660E-001	0.0000000E+000	0.0000000E+000	1.000000000000000E+000	0.0000000E+000	0.0000000E+000	12	1.747700702583773E-003	-8.3293095E-002	0.0000000E+000	0.0000000E+000	0.0000000E+000	0.0000000E+000	0.0000000E+000	0.0000000E+000	0.0000000E+000	0.0000000E+000	0.0000000E+000	0.0000000E+000	0.0000000E+000	0.0000000E+000	0.0000000E+000	9.167429952626135E-005	-6.520906302198657E-005
0.0000000E+000	0.0000000E+000	0.0000000E+000	0.0000000E+000	0.0000000E+000	4.534192050053203E+004	6.2218815E-002	3.8057935E-001	0.0000000E+000	0.0000000E+000	1.000000000000000E+000	0.0000000E+000	0.0000000E+000	12	1.840329408357185E-003	-8.3273999E-002	0.0000000E+000	0.0000000E+000	0.0000000E+000	0.0000000E+000	0.0000000E+000	0.0000000E+000	0.0000000E+000	0.0000000E+000	0.0000000E+000	0.0000000E+000	0.0000000E+000	0.0000000E+000	0.0000000E+000	9.262870577341192E-005	-6.866516457501203E-005
0.0000000E+000	0.0000000E+000	0.0000000E+000	0.0000000E+000	0.0000000E+000	4.534292050058232E+004	6.2486257E-002	3.8055906E-001	0.0000000E+000	0.0000000E+000	1.000000000000000E+000	0.0000000E+000	0.0000000E+000	12	1.932763096830465E-003	-8.3464958E-002	0.0000000E+000	0.0000000E+000	0.0000000E+000	0.0000000E+000	0.0000000E+000	0.0000000E+000	0.0000000E+000	0.0000000E+000	0.0000000E+000	0.0000000E+000	0.0000000E+000	0.0000000E+000	0.0000000E+000	9.243368847327974E-005	-7.211398977036601E-005
0.0000000E+000	0.0000000E+000	0.0000000E+000	0.0000000E+000	0.0000000E+000	4.534392050063261E+004	6.2742963E-002	3.8057035E-001	0.0000000E+000	0.0000000E+000	1.000000000000000E+000	0.0000000E+000	0.0000000E+000	12	2.024607376976081E-003	-8.3865963E-002	0.0000000E+000	0.0000000E+000	0.0000000E+000	0.0000000E+000	0.0000000E+000	0.0000000E+000	0.0000000E+000	0.0000000E+000	0.0000000E+000	0.0000000E+000	0.0000000E+000	0.0000000E+000	0.0000000E+000	9.184428014561612E-005	-7.554082334854695E-005
0.0000000E+000	0.0000000E+000	0.0000000E+000	0.0000000E+000	0.0000000E+000	4.534492050068290E+004	6.2988080E-002	3.8056159E-001	0.0000000E+000	0.0000000E+000	1.000000000000000E+000	0.0000000E+000	0.0000000E+000	12	2.116280303517072E-003	-8.3694100E-002	0.0000000E+000	0.0000000E+000	0.0000000E+000	0.0000000E+000	0.0000000E+000	0.0000000E+000	0.0000000E+000	0.0000000E+000	0.0000000E+000	0.0000000E+000	0.0000000E+000	0.0000000E+000	0.0000000E+000	9.167292654099117E-005	-7.896126349335194E-005
0.0000000E+000	0.0000000E+000	0.0000000E+000	0.0000000E+000	0.0000000E+000	4.534592050073319E+004	6.3227206E-002	3.8056847E-001	0.0000000E+000	0.0000000E+000	1.000000000000000E+000	0.0000000E+000	0.0000000E+000	12	2.208399043064713E-003	-8.3885059E-002	0.0000000E+000	0.0000000E+000	0.0000000E+000	0.0000000E+000	0.0000000E+000	0.0000000E+000	0.0000000E+000	0.0000000E+000	0.0000000E+000	0.0000000E+000	0.0000000E+000	0.0000000E+000	0.0000000E+000	9.211873954764098E-005	-8.239833752083701E-005
0.0000000E+000	0.0000000E+000	0.0000000E+000	0.0000000E+000	0.0000000E+000	4.534692050078348E+004	6.3453689E-002	3.8055912E-001	0.0000000E+000	0.0000000E+000	1.000000000000000E+000	0.0000000E+000	0.0000000E+000	12	2.300578888192663E-003	-8.4056914E-002	0.0000000E+000	0.0000000E+000	0.0000000E+000	0.0000000E+000	0.0000000E+000	0.0000000E+000	0.0000000E+000	0.0000000E+000	0.0000000E+000	0.0000000E+000	0.0000000E+000	0.0000000E+000	0.0000000E+000	9.217984512794979E-005	-8.583769147968072E-005
0.0000000E+000	0.0000000E+000	0.0000000E+000	0.0000000E+000	0.0000000E+000	4.534792050083377E+004	6.3687660E-002	3.8057843E-001	0.0000000E+000	0.0000000E+000	1.000000000000000E+000	0.0000000E+000	0.0000000E+000	12	2.392382879843909E-003	-8.3999626E-002	0.0000000E+000	0.0000000E+000	0.0000000E+000	0.0000000E+000	0.0000000E+000	0.0000000E+000	0.0000000E+000	0.0000000E+000	0.0000000E+000	0.0000000E+000	0.0000000E+000	0.0000000E+000	0.0000000E+000	9.180399165124647E-005	-8.926302183996826E-005
0.0000000E+000	0.0000000E+000	0.0000000E+000	0.0000000E+000	0.0000000E+000	4.534892050088407E+004	6.3915357E-002	3.8057816E-001	0.0000000E+000	0.0000000E+000	1.000000000000000E+000	0.0000000E+000	0.0000000E+000	12	2.484799861978701E-003	-8.4381536E-002	0.0000000E+000	0.0000000E+000	0.0000000E+000	0.0000000E+000	0.0000000E+000	0.0000000E+000	0.0000000E+000	0.0000000E+000	0.0000000E+000	0.0000000E+000	0.0000000E+000	0.0000000E+000	0.0000000E+000	9.241698213479158E-005	-9.271122369937134E-005
0.0000000E+000	0.0000000E+000	0.0000000E+000	0.0000000E+000	0.0000000E+000	4.534992050093436E+004	6.4133711E-002	3.8056895E-001	0.0000000E+000	0.0000000E+000	1.000000000000000E+000	0.0000000E+000	0.0000000E+000	12	2.577214761067324E-003	-8.4687069E-002	0.0000000E+000	0.0000000E+000	0.0000000E+000	0.0000000E+000	0.0000000E+000	0.0000000E+000	0.0000000E+000	0.0000000E+000	0.0000000E+000	0.0000000E+000	0.0000000E+000	0.0000000E+000	0.0000000E+000	9.241489908862329E-005	-9.615934783752118E-005
0.0000000E+000	0.0000000E+000	0.0000000E+000	0.0000000E+000	0.0000000E+000	4.535092050098465E+004	6.4351827E-002	3.8056299E-001	0.0000000E+000	0.0000000E+000	1.000000000000000E+000	0.0000000E+000	0.0000000E+000	12	2.669628108012192E-003	-8.4687069E-002	0.0000000E+000	0.0000000E+000	0.0000000E+000	0.0000000E+000	0.0000000E+000	0.0000000E+000	0.0000000E+000	0.0000000E+000	0.0000000E+000	0.0000000E+000	0.0000000E+000	0.0000000E+000	0.0000000E+000	9.241334694486819E-005	-9.960741406310066E-005
1.0000186E+006	-4.2986954E+001	8.0752533E+001	9.1481415E+001	-1.1802769E+002	4.535445450116240E+004	6.4936787E-002	3.7905070E-001	1.9708606E-003	1.5356862E-003	1.000000000000000E+000	2.4760579E-004	2.7066239E-006	12	3.030838038079881E-003	-8.3407670E-002	2.3818355E-004	5.0924854E+001	8.8000237E+001	5.5469990E+001	-6.8316338E+001	-4.4892300E+001	1.7620588E+001	1.2483036E+001	1.2436195E+001	-5.1365425E-003	9.6491799E-003	1.0931182E-002	1.1802769E+002	3.612099300676882E-004	-1.130846422058422E-004
6.8003081E+005	1.1477746E+000	4.3193729E+001	4.3208977E+001	-8.8477852E+001	4.535719750130037E+004	6.5602869E-002	3.7984765E-001	5.4183975E-003	5.4145739E-003	1.000000000000000E+000	1.0468612E-003	2.4227864E-005	12	3.319811636766581E-003	-8.7723248E-002	1.1702250E-003	7.3445786E+001	4.8300789E+001	1.3761977E+001	-4.6298748E+001	1.1763944E+001	1.5229637E+001	1.4909752E+001	-3.1050186E+000	6.1476516E-004	2.3135174E-002	2.3143340E-002	8.8477852E+001	2.889735986867001E-004	-1.238666357019786E-004
4.6243134E+005	1.3594885E+001	2.6130064E+001	2.9455070E+001	-6.2513054E+001	4.535758250131970E+004	6.5708607E-002	3.8013351E-001	1.3171415E-002	1.0365571E-002	1.000000000000000E+000	1.4517343E-003	4.9286398E-005	12	3.360113044766551E-003	-8.4095106E-002	1.4063696E-003	8.2080521E+001	2.8534639E+001	3.9315393E+000	-2.8262495E+001	6.9370513E+000	1.7655674E+001	1.7526424E+001	-2.1324310E+000	1.5669510E-002	3.0117599E-002	3.3950012E-002	6.2513054E+001	4.030140799997015E-005	-1.253703354202769E-004
3.1446703E+005	1.8780371E+001	1.3873993E+001	2.3349304E+001	-3.6455124E+001	4.535809750134556E+004	6.5822594E-002	3.8024858E-001	3.6479052E-002	1.2879488E-002	1.000000000000000E+000	1.2019160E-003	5.1475454E-005	12	3.414172056952340E-003	-8.5947365E-002	7.6264108E-004	9.2657242E+001	1.4815626E+001	-6.8686664E-001	-1.4799696E+001	2.9288232E+000	1.8117168E+001	1.8093504E+001	-9.2570305E-001	3.4447387E-002	2.5447996E-002	4.2827830E-002	3.6455124E+001	5.405901218578880E-005	-1.273873498480436E-004
2.1385095E+005	1.7076242E+001	3.6957674E+000	1.7471598E+001	-1.2212030E+001	4.535861450137163E+004	6.5903611E-002	3.8027447E-001	2.0137443E-001	9.0104891E-003	1.000000000000000E+000	8.9319359E-004	5.1122603E-005	12	3.468342129351694E-003	-8.5527271E-002	1.8317458E-004	7.1858505E+001	3.5830448E+000	1.1156336E+000	-3.4049335E+000	-9.1591096E-001	1.8194201E+001	1.8191875E+001	2.9083395E-001	5.5940591E-002	1.2107080E-002	5.7235751E-002	1.2212030E+001	5.417007239935439E-005	-1.294085080817004E-004
