EC-Lab ASCII FILE
Nb header lines : 3                           
freq/Hz	Re(Z)/Ohm	-Im(Z)/Ohm	|Z|/Ohm	Phase(Z)/deg	time/s	<Ewe>/V	<I>/mA	Cs/µF	Cp/µF	cycle number	I Range	|Ewe|/V	|I|/A	Ns	(Q-Qo)/mA.h	<Ece>/V	|Ece|/V	Phase(Zce)/deg	|Zce|/Ohm	Re(Zce)/Ohm	-Im(Zce)/Ohm	Phase(Zwe-ce)/deg	|Zwe-ce|/Ohm	Re(Zwe-ce)/Ohm	-Im(Zwe-ce)/Ohm	Re(Y)/Ohm-1	Im(Y)/Ohm-1	|Y|/Ohm-1	Phase(Y)/deg	dq/mA.h	
1.0000186E+006	3.2770161E+001	-1.7702009E+001	3.7245731E+001	2.8377337E+001	3.194897299913428E+002	-3.6185820E+000	-1.0007437E+002	-8.9906175E-003	-2.0308676E-003	1.000000000000000E+000	178	9.6430574E-003	2.5890369E-004	0	-2.555166214929356E-002	-4.7600255E+000	7.9793669E-003	-9.8479223E+000	3.0819828E+001	3.0365704E+001	5.2712274E+000	1.1138461E+001	6.4347977E+001	6.3135864E+001	-1.2430782E+001	2.3622483E-002	-1.2760555E-002	2.6848715E-002	-2.8377337E+001	-2.555166214929356E-002
6.8129269E+005	2.6187099E+001	-1.4551601E+001	2.9958527E+001	2.9059975E+001	3.198907499303896E+002	-3.6185861E+000	-1.1487266E+002	-1.6053718E-002	-3.7875320E-003	1.000000000000000E+000	178	1.0480603E-002	3.4983706E-004	0	-3.769454969581382E-002	-5.2187181E+000	1.0673919E-002	-7.0817480E+000	3.0511114E+001	3.0278353E+001	3.7615736E+000	1.0818274E+001	5.7487148E+001	5.6465454E+001	-1.0790028E+001	2.9177396E-002	-1.6213244E-002	3.3379480E-002	-2.9059975E+001	-1.214288754652027E-002
4.6415716E+005	2.3674938E+001	-1.1521785E+001	2.6329721E+001	2.5950607E+001	3.202917236827634E+002	-3.6185539E+000	-1.1449167E+002	-2.9760163E-002	-5.6987852E-003	1.000000000000000E+000	178	1.0424942E-002	3.9593817E-004	0	-5.034054526706040E-002	-5.2085500E+000	1.2000184E-002	-4.7752442E+000	3.0308226E+001	3.0203024E+001	2.5230775E+000	9.4820290E+000	5.4624275E+001	5.3877960E+001	-8.9987068E+000	3.4150444E-002	-1.6619856E-002	3.7979893E-002	-2.5950607E+001	-1.264599557124658E-002
3.1622997E+005	2.1134321E+001	-9.9462595E+000	2.3357817E+001	2.5202669E+001	3.208267379748140E+002	-3.6185629E+000	-1.1405488E+002	-5.0600789E-002	-9.1751339E-003	1.000000000000000E+000	178	9.8328562E-003	4.2096642E-004	0	-6.720330088051905E-002	-5.2099242E+000	1.2794431E-002	-3.1762938E+000	3.0392998E+001	3.0346308E+001	1.6840272E+000	9.1177635E+000	5.2139423E+001	5.1480629E+001	-8.2622318E+000	3.8736805E-002	-1.8230362E-002	4.2812221E-002	-2.5202669E+001	-1.686275561345865E-002
2.1544686E+005	1.9502878E+001	-8.4663801E+000	2.1261276E+001	2.3466112E+001	3.212277102872467E+002	-3.6186082E+000	-1.1409742E+002	-8.7253369E-002	-1.3835634E-002	1.000000000000000E+000	178	1.0328960E-002	4.8581092E-004	0	-7.981964155462633E-002	-5.2038097E+000	1.4932044E-002	-2.1822996E+000	3.0736328E+001	3.0714035E+001	1.1704119E+000	8.2666073E+000	5.0744156E+001	5.0216911E+001	-7.2959681E+000	4.3143965E-002	-1.8729195E-002	4.7033865E-002	-2.3466112E+001	-1.261634067410727E-002
1.4677664E+005	1.7805344E+001	-6.5139732E+000	1.8959486E+001	2.0094728E+001	3.216277147062210E+002	-3.6185477E+000	-1.1398261E+002	-1.6646282E-001	-1.9649705E-002	1.000000000000000E+000	178	1.0663165E-002	5.6241843E-004	0	-9.239492921991316E-002	-5.1992407E+000	1.7090982E-002	-1.5651124E+000	3.0388374E+001	3.0377037E+001	8.2999665E-001	6.7279706E+000	4.8516487E+001	4.8182381E+001	-5.6839767E+000	4.9533296E-002	-1.8121446E-002	5.2744046E-002	-2.0094728E+001	-1.257528766528683E-002
1.0000371E+005	1.6467272E+001	-4.6509089E+000	1.7111458E+001	1.5771457E+001	3.220287062452844E+002	-3.6185839E+000	-1.1383298E+002	-3.4218907E-001	-2.5279460E-002	1.000000000000000E+000	178	1.0650319E-002	6.2240864E-004	0	-1.049847719264585E-001	-5.2095809E+000	1.8958058E-002	-9.6845537E-001	3.0459183E+001	3.0454832E+001	5.1481897E-001	5.0374885E+000	4.7104046E+001	4.6922104E+001	-4.1360898E+000	5.6240302E-002	-1.5884144E-002	5.8440376E-002	-1.5771457E+001	-1.258984270654535E-002
6.8132047E+004	1.6040077E+001	-3.3380346E+000	1.6383728E+001	1.1755799E+001	3.224297208243370E+002	-3.6186051E+000	-1.1358926E+002	-6.9980627E-001	-2.9049193E-002	1.000000000000000E+000	178	1.0564060E-002	6.4478978E-004	0	-1.175435579182398E-001	-5.1837826E+000	1.9833021E-002	-1.0939192E+000	3.0758894E+001	3.0753288E+001	5.8722824E-001	3.3643320E+000	4.6874149E+001	4.6793365E+001	-2.7508063E+000	5.9755929E-002	-1.2435561E-002	6.1036170E-002	-1.1755799E+001	-1.255878599178129E-002
4.6420352E+004	1.5784344E+001	-2.2905600E+000	1.5949677E+001	8.2568932E+000	3.228297315633245E+002	-3.6185708E+000	-1.1303222E+002	-1.4968215E+000	-3.0870926E-002	1.000000000000000E+000	178	1.0574887E-002	6.6301576E-004	0	-1.300253912691648E-001	-5.1788015E+000	2.0224649E-002	-9.5376784E-001	3.0504025E+001	3.0499798E+001	5.0775838E-001	2.2058642E+000	4.6318466E+001	4.6284142E+001	-1.7828016E+000	6.2047284E-002	-9.0040499E-003	6.2697195E-002	-8.2568932E+000	-1.248183335092500E-002
3.1621143E+004	1.5671644E+001	-1.4414561E+000	1.5737796E+001	5.2551999E+000	3.232297470756312E+002	-3.6186545E+000	-1.1324842E+002	-3.4917340E+000	-2.9292481E-002	1.000000000000000E+000	178	1.0431377E-002	6.6282327E-004	0	-1.425096575387029E-001	-5.1752295E+000	2.0318957E-002	-5.8943665E-001	3.0655167E+001	3.0653545E+001	3.1536284E-001	1.3924971E+000	4.6338871E+001	4.6325188E+001	-1.1260933E+000	6.3274212E-002	-5.8198743E-003	6.3541301E-002	-5.2551999E+000	-1.248426626953814E-002
2.1544688E+004	1.5801333E+001	-8.8370734E-001	1.5826025E+001	3.2009966E+000	3.236307393080060E+002	-3.6185386E+000	-1.1295627E+002	-8.3593302E+000	-2.6064217E-002	1.000000000000000E+000	178	1.0459789E-002	6.6092331E-004	0	-1.550035292434320E-001	-5.1666760E+000	2.0260034E-002	-4.5711040E-001	3.0654139E+001	3.0653164E+001	2.4455863E-001	7.8825980E-001	4.6458897E+001	4.6454498E+001	-6.3914871E-001	6.3088477E-002	-3.5282944E-003	6.3187063E-002	-3.2009966E+000	-1.249387170472907E-002
1.4678590E+004	1.5760934E+001	-3.0172890E-001	1.5763822E+001	1.0967423E+000	3.240317539937532E+002	-3.6184692E+000	-1.1292751E+002	-3.5935104E+001	-1.3165268E-002	1.000000000000000E+000	178	1.0344590E-002	6.5622351E-004	0	-1.674791611542453E-001	-5.1603894E+000	2.0085610E-002	-6.8372983E-001	3.0607880E+001	3.0605700E+001	3.6524546E-001	-7.8488089E-002	4.6366676E+001	4.6366634E+001	6.3516557E-002	6.3424774E-002	-1.2142104E-003	6.3436396E-002	-1.0967423E+000	-1.247563191081333E-002
1.0002226E+004	1.5903802E+001	-3.0459166E-001	1.5906718E+001	1.0972021E+000	3.244327051594591E+002	-3.6185799E+000	-1.1254619E+002	-5.2240280E+001	-1.9154919E-002	1.000000000000000E+000	178	1.0260575E-002	6.4504665E-004	0	-1.799275366783730E-001	-5.1549621E+000	1.9792596E-002	-6.9786412E-001	3.0683975E+001	3.0681700E+001	3.7372240E-001	-8.5024245E-002	4.6585552E+001	4.6585503E+001	6.9130749E-002	6.2854990E-002	-1.2038070E-003	6.2866516E-002	-1.0972021E+000	-1.244837552412767E-002
6.8104194E+003	1.5909151E+001	-2.3258965E-001	1.5910851E+001	8.3759689E-001	3.248327438984270E+002	-3.6183071E+000	-1.1241711E+002	-1.0047451E+002	-2.1470878E-002	1.000000000000000E+000	178	1.0642751E-002	6.6889892E-004	0	-1.923260484002994E-001	-5.1482978E+000	2.0432282E-002	-8.4792799E-001	3.0546143E+001	3.0542797E+001	4.5203999E-001	-2.7067721E-001	4.6452469E+001	4.6451950E+001	2.1945034E-001	6.2843472E-002	-9.1876305E-004	6.2850185E-002	-8.3759689E-001	-1.239851172192641E-002
4.6406465E+003	1.6112183E+001	1.9011979E-001	1.6113304E+001	-6.7604470E-001	3.252429325313133E+002	-3.6182830E+000	-1.1218527E+002	1.8039078E+002	2.5113069E-002	1.000000000000000E+000	178	1.0359941E-002	6.4294331E-004	0	-2.050135054263034E-001	-5.1439700E+000	1.9828934E-002	-5.4151332E-001	3.0840876E+001	3.0839499E+001	2.9147863E-001	-5.8768052E-001	4.6954151E+001	4.6951683E+001	4.8159844E-001	6.2056195E-002	7.3224783E-004	6.2060516E-002	6.7604470E-001	-1.268745702600396E-002
3.1630769E+003	1.6081135E+001	4.6859428E-001	1.6087961E+001	-1.6690911E+000	3.258108052782973E+002	-3.6183524E+000	-1.1177541E+002	1.0737753E+002	9.1097265E-002	1.000000000000000E+000	178	1.0156698E-002	6.3132285E-004	0	-2.225604722047746E-001	-5.1287866E+000	1.9401360E-002	-7.6926434E-001	3.0731281E+001	3.0728512E+001	4.1259181E-001	-1.0784590E+000	4.6817940E+001	4.6809647E+001	8.8118613E-001	6.2131908E-002	1.8104851E-003	6.2158279E-002	1.6690911E+000	-1.754696677847126E-002
2.1543130E+003	1.6302971E+001	3.2534227E-001	1.6306217E+001	-1.1432434E+000	3.262701003667462E+002	-3.6182840E+000	-1.1144702E+002	2.2707581E+002	9.0395205E-002	1.000000000000000E+000	178	1.0557346E-002	6.4744300E-004	0	-2.366461636824981E-001	-5.1069045E+000	2.0106476E-002	-1.0291498E+000	3.1055206E+001	3.1050198E+001	5.5778521E-001	-1.0684314E+000	4.7361404E+001	4.7353168E+001	8.8312745E-001	6.1314095E-002	1.2235848E-003	6.1326303E-002	1.1432434E+000	-1.408569147772343E-002
1.4676526E+003	1.6605509E+001	4.9194756E-001	1.6612795E+001	-1.6969234E+000	3.267283457218291E+002	-3.6182871E+000	-1.1117967E+002	2.2043373E+002	1.9329929E-001	1.000000000000000E+000	178	1.0814027E-002	6.5094564E-004	0	-2.507015839222802E-001	-5.1046028E+000	2.0354683E-002	-9.8969966E-001	3.1269405E+001	3.1264740E+001	5.4010576E-001	-1.2350707E+000	4.7881371E+001	4.7870247E+001	1.0320534E+000	6.0168169E-002	1.7825159E-003	6.0194567E-002	1.6969234E+000	-1.405542023978215E-002
9.9968164E+002	1.6814531E+001	6.1589241E-001	1.6825808E+001	-2.0977252E+000	3.271860874236008E+002	-3.6181834E+000	-1.1090842E+002	2.5849585E+002	3.4634700E-001	1.000000000000000E+000	178	1.1046547E-002	6.5652397E-004	0	-2.647081146105263E-001	-5.0855379E+000	2.0415479E-002	-5.5695021E-001	3.1096319E+001	3.1094851E+001	3.0227059E-001	-1.0979149E+000	4.7918179E+001	4.7909382E+001	9.1816300E-001	5.9392683E-002	2.1754694E-003	5.9432510E-002	2.0977252E+000	-1.400653068824609E-002
6.8108960E+002	1.6885216E+001	4.1682512E-001	1.6890360E+001	-1.4141052E+000	3.278677666826261E+002	-3.6182950E+000	-1.1085493E+002	5.6061151E+002	3.4142235E-001	1.000000000000000E+000	178	9.8270765E-003	5.8181572E-004	0	-2.855713367468599E-001	-5.0861907E+000	1.8273424E-002	-8.0805480E-001	3.1407581E+001	3.1404457E+001	4.4293326E-001	-1.0199970E+000	4.8297325E+001	4.8289673E+001	8.5975838E-001	5.9187338E-002	1.4610870E-003	5.9205368E-002	1.4141052E+000	-2.086322213633357E-002
4.7424136E+002	1.7042589E+001	3.3971354E-001	1.7045975E+001	-1.1419377E+000	3.283253992110112E+002	-3.6182206E+000	-1.1057757E+002	9.8788831E+002	3.9236465E-001	1.000000000000000E+000	178	9.8791718E-003	5.7956041E-004	0	-2.995426304538697E-001	-5.1066985E+000	1.8268164E-002	-5.5291581E-001	3.1520725E+001	3.1519258E+001	3.0417663E-001	-7.5965035E-001	4.8566116E+001	4.8561848E+001	6.4389014E-001	5.8653224E-002	1.1691472E-003	5.8664877E-002	1.1419377E+000	-1.397129370700984E-002
3.1631589E+002	1.7314423E+001	2.1723826E-001	1.7315784E+001	-7.1883327E-001	3.287812660327036E+002	-3.6182456E+000	-1.0993020E+002	2.3161294E+003	3.6454496E-001	1.000000000000000E+000	178	9.9245124E-003	5.7314831E-004	0	-3.133825648024364E-001	-5.0662332E+000	1.8219596E-002	-1.0045577E+000	3.1788624E+001	3.1783737E+001	5.5731630E-001	-9.0380222E-001	4.9104267E+001	4.9098160E+001	7.7455455E-001	5.7746232E-002	7.2452263E-004	5.7750776E-002	7.1883327E-001	-1.383993434856667E-002
2.1548271E+002	1.7571375E+001	-7.9855368E-002	1.7571556E+001	2.6038623E-001	3.292376159209962E+002	-3.6181509E+000	-1.0969109E+002	-9.2491875E+003	-1.9102551E-001	1.000000000000000E+000	178	9.9985376E-003	5.6901836E-004	0	-3.271886881558349E-001	-5.0549998E+000	1.8128464E-002	-8.1629354E-001	3.1859190E+001	3.1855957E+001	4.5388284E-001	-4.3356150E-001	4.9428745E+001	4.9427330E+001	3.7402749E-001	5.6909569E-002	-2.5863285E-004	5.6910157E-002	-2.6038623E-001	-1.380612335339848E-002
1.4673770E+002	1.7388693E+001	5.3179604E-003	1.7388693E+001	-1.7522691E-002	3.296896509558283E+002	-3.6181812E+000	-1.1035947E+002	2.0395452E+005	1.9076103E-002	1.000000000000000E+000	178	9.9157356E-003	5.7024043E-004	0	-3.408751949947294E-001	-5.0990038E+000	1.8180817E-002	-6.7199534E-001	3.1882723E+001	3.1880529E+001	3.7392896E-001	-4.4102216E-001	4.9270683E+001	4.9269222E+001	3.7924692E-001	5.7508633E-002	1.7587789E-005	5.7508636E-002	1.7522691E-002	-1.368650683889455E-002
9.9968163E+001	1.7398575E+001	1.8554688E-001	1.7399565E+001	-6.1100692E-001	3.301471154042374E+002	-3.6182418E+000	-1.1162090E+002	8.5803457E+003	9.7574270E-001	1.000000000000000E+000	178	9.8919766E-003	5.6851865E-004	0	-3.549380348430640E-001	-5.1133285E+000	1.8327069E-002	-1.2255092E-001	3.2236530E+001	3.2236458E+001	6.8951212E-002	-2.9377514E-001	4.9635685E+001	4.9635033E+001	2.5449809E-001	5.7469435E-002	6.1288202E-004	5.7472702E-002	6.1100692E-001	-1.406283984833462E-002
6.8146439E+001	1.7309618E+001	3.3050233E-001	1.7312773E+001	-1.0938479E+000	3.306165175331844E+002	-3.6182468E+000	-1.1137963E+002	7.0664683E+003	2.5752432E+000	1.000000000000000E+000	178	9.9769328E-003	5.7627587E-004	0	-3.693595193293045E-001	-5.1105804E+000	1.8471094E-002	-5.7778871E-001	3.2052521E+001	3.2050892E+001	3.2322225E-001	-7.5877392E-001	4.9364841E+001	4.9360512E+001	6.5372455E-001	5.7750296E-002	1.1026592E-003	5.7760824E-002	1.0938479E+000	-1.442148448624048E-002
4.6410858E+001	1.7370539E+001	3.0741960E-001	1.7373259E+001	-1.0139010E+000	3.310610256343207E+002	-3.6182649E+000	-1.1108595E+002	1.1154984E+004	3.4927661E+000	1.000000000000000E+000	178	9.9143311E-003	5.7066616E-004	0	-3.829818771684277E-001	-5.1050153E+000	1.8438900E-002	-3.7989005E-001	3.2311184E+001	3.2310474E+001	2.1423231E-001	-6.0158503E-001	4.9683754E+001	4.9681015E+001	5.2165192E-001	5.7550713E-002	1.0185186E-003	5.7559725E-002	1.0139010E+000	-1.362235783912324E-002
3.1629578E+001	1.7368387E+001	2.1930583E-001	1.7369772E+001	-7.2341955E-001	3.314967752549419E+002	-3.6182306E+000	-1.1071695E+002	2.2944393E+004	3.6575365E+000	1.000000000000000E+000	178	1.0029966E-002	5.7743798E-004	0	-3.962990662684623E-001	-5.1079350E+000	1.8573631E-002	-9.1952950E-001	3.2165585E+001	3.2161442E+001	5.1619744E-001	-8.5076272E-001	4.9535290E+001	4.9529831E+001	7.3550326E-001	5.7566691E-002	7.2687870E-004	5.7571281E-002	7.2341955E-001	-1.331718910003454E-002
2.1551699E+001	1.7729364E+001	-4.2997783E-001	1.7734577E+001	1.3892820E+000	3.319246597552992E+002	-3.6181459E+000	-1.1071873E+002	-1.7174834E+004	-1.0095853E+001	1.000000000000000E+000	178	9.9048885E-003	5.5850716E-004	0	-4.093662860557081E-001	-5.0762634E+000	1.8290117E-002	-2.0277263E-001	3.2748222E+001	3.2748016E+001	1.1589736E-001	3.5650134E-001	5.0478355E+001	5.0477379E+001	-3.1408048E-001	5.6370448E-002	-1.3671129E-003	5.6387022E-002	-1.3892820E+000	-1.306721978724579E-002
1.4675930E+001	1.7523916E+001	3.2271266E-001	1.7526888E+001	-1.0550144E+000	3.323914746575028E+002	-3.6181731E+000	-1.1052906E+002	3.3604582E+004	1.1392549E+001	1.000000000000000E+000	178	9.8267691E-003	5.6066824E-004	0	-4.235924935670346E-001	-5.0811071E+000	1.8876566E-002	-3.8636965E-001	3.3667976E+001	3.3667210E+001	2.2703566E-001	-6.1528337E-001	5.1194077E+001	5.1191124E+001	5.4974830E-001	5.7045523E-002	1.0505250E-003	5.7055194E-002	1.0550144E+000	-1.422620751132653E-002
9.9968166E+000	1.6948631E+001	-6.2752895E-002	1.6948748E+001	2.1213864E-001	3.328491095325880E+002	-3.6180978E+000	-1.1034888E+002	-2.5370244E+005	-3.4778988E+000	1.000000000000000E+000	178	9.9980701E-003	5.8990024E-004	0	-4.375286095315417E-001	-5.0950193E+000	1.9528450E-002	-4.9595332E+000	3.3104668E+001	3.2980724E+001	2.8619690E+000	-3.2088447E+000	5.0007763E+001	4.9929356E+001	2.7992160E+000	5.9001002E-002	-2.1845326E-004	5.9001409E-002	-2.1213864E-001	-1.393611596450706E-002