EC-Lab ASCII FILE
Nb header lines : 70                          

Potentio Electrochemical Impedance Spectroscopy

Run on channel : 2 (SN 21643)
User : 
CE vs. WE compliance from -10 V to 10 V
Electrode connection : standard
Potential control : Ewe
Ewe ctrl range : min = -2.50 V, max = 2.50 V
Safety Limits :
	Ewe max = 6.00 V
	for t > 10 ms
Acquisition started on : 08/01/2025 11:40:47.312
Loaded Setting File :  NONE
Saved on :
	File : peis_ecell_ewe_no_ece_record_C02.mpr
	Directory : C:\Users\IOMCguest\Desktop\Local Data\SW local\
	Host : 10.232.56.37
Device : VMP3 (SN 0858)
Address : 10.233.56.34
EC-LAB for windows v11.61 (software)
Internet server v11.61 (firmware)
Command interpretor v11.61 (firmware)
Electrode material : PFPMAm-co-TEGDMA (3%)
Initial state : discharged
Electrolyte : 2.0M Zn(ClO4)2 in water
Comments : Swaglock t-cell SS (3), WE:SW-E15-5 (D = 12 mm, t = 0.033 mm), CE:  Zinc foil (D = 12 mm, 0.025 mm), Ref: Ag wire (D = 0.5 mm), cell was shortcuted during assembly
Mass of active material : 1.390 mg
 at x = 0.000
Molecular weight of active material (at x = 0) : 310.150 g/mol
Atomic weight of intercalated ion : 99.450 g/mol
Acquisition started at : xo = 0.000
Number of e- transfered per intercalated ion : 1
for DX = 1, DQ = 0.120 mA.h
Battery capacity : 120.000 µA.h
Electrode surface area : 113.100 mm²
Characteristic mass : 1.390 mg
Volume (V) : 0.001 cm³
Cycle Definition : Charge/Discharge alternance
Mode                Multi sine          
E (V)               0.0000              
vs.                 Eoc                 
tE (h:m:s)          0:00:0.0000         
record              0                   
dI                  0.000               
unit dI             mA                  
dt (s)              0.000               
fi                  0.200               
unit fi             MHz                 
ff                  1.000               
unit ff             Hz                  
Nd                  6                   
Points              per decade          
spacing             Logarithmic         
Va (mV)             10.0                
pw                  0.10                
Na                  10                  
corr                0                   
E range min (V)     -2.500              
E range max (V)     2.500               
I Range             Auto                
Bandwidth           7                   
nc cycles           0                   
goto Ns'            0                   
nr cycles           0                   
inc. cycle          0                   

freq/Hz	Re(Z)/Ohm	-Im(Z)/Ohm	|Z|/Ohm	Phase(Z)/deg	time/s	<Ewe>/V	<I>/mA	Cs/µF	Cp/µF	cycle number	I Range	|Ewe|/V	|I|/A	Ns	(Q-Qo)/mA.h	Re(Y)/Ohm-1	Im(Y)/Ohm-1	|Y|/Ohm-1	Phase(Y)/deg	Re(C)/nF	Im(C)/nF	|C|/nF	Phase(C)/deg	Re(M)	Im(M)	|M|	Phase(M)/deg	Re(Permittivity)	Im(Permittivity)	|Permittivity|	Phase(Permittivity)/deg	Re(Resistivity)/Ohm.cm	Im(Resistivity)/Ohm.cm	|Resistivity|/Ohm.cm	Phase(Resistivity)/deg	Re(Conductivity)/mS/cm	Im(Conductivity)/mS/cm	|Conductivity|/mS/cm	Phase(Conductivity)/deg	Tan(Delta)	Loss Angle(Delta)/deg	dq/mA.h	x	Pwe/W	Rwe/Ohm	
1.9999814E+005	1.2274132E+000	1.1227046E-001	1.2325372E+000	-5.2262540E+000	3.117486468021525E+000	-2.9104253E-002	2.4979684E-001	7.0880809E+000	5.8811147E-002	1.000000000000000E+000	9	9.6131749E-003	7.7995015E-003	0	1.252142344494091E-004	8.0796164E-001	7.3903576E-002	8.1133455E-001	5.2262540E+000	5.8811180E+001	6.4296143E+002	6.4564551E+002	-8.4773743E+001	0.0000000E+000	0.0000000E+000	0.0000000E+000	8.4773743E+001	0.0000000E+000	0.0000000E+000	0.0000000E+000	-8.4773743E+001	0.0000000E+000	0.0000000E+000	0.0000000E+000	-5.2262540E+000	0.0000000E+000	0.0000000E+000	0.0000000E+000	5.2262540E+000	1.0932646E+001	8.4773743E+001	1.252142344494091E-004	-1.042441236978647E-003	-7.2701505E-006	1.1651170E+002
1.3659813E+005	1.2893004E+000	1.7154194E-001	1.3006623E+000	-7.5787148E+000	4.798476707859663E+000	-2.9193295E-002	2.5975013E-001	6.7921162E+000	1.1814535E-001	1.000000000000000E+000	9	9.9201631E-003	7.6270089E-003	0	2.318563755554044E-004	7.6212293E-001	1.0140076E-001	7.6883906E-001	7.5787148E+000	1.1814531E+002	8.8797443E+002	8.9579956E+002	-8.2421288E+001	0.0000000E+000	0.0000000E+000	0.0000000E+000	8.2421288E+001	0.0000000E+000	0.0000000E+000	0.0000000E+000	-8.2421288E+001	0.0000000E+000	0.0000000E+000	0.0000000E+000	-7.5787148E+000	0.0000000E+000	0.0000000E+000	0.0000000E+000	7.5787148E+000	7.5159488E+000	8.2421288E+001	1.066421411059952E-004	-1.930264941507231E-003	-7.5829621E-006	1.1238992E+002
9.3267516E+004	1.3393397E+000	2.2934084E-001	1.3588334E+000	-9.7167616E+000	6.340476861136267E+000	-2.9221566E-002	2.6875290E-001	7.4406066E+000	2.1195257E-001	1.000000000000000E+000	9	9.1866590E-003	6.7606955E-003	0	3.359341354116073E-004	7.2536790E-001	1.2420782E-001	7.3592538E-001	9.7167616E+000	2.1195248E+002	1.2377931E+003	1.2558087E+003	-8.0283241E+001	0.0000000E+000	0.0000000E+000	0.0000000E+000	8.0283241E+001	0.0000000E+000	0.0000000E+000	0.0000000E+000	-8.0283241E+001	0.0000000E+000	0.0000000E+000	0.0000000E+000	-9.7167616E+000	0.0000000E+000	0.0000000E+000	0.0000000E+000	9.7167616E+000	5.8399529E+000	8.0283241E+001	1.040777598562029E-004	-2.796739501716297E-003	-7.8533803E-006	1.0873023E+002
6.3687648E+004	1.3880246E+000	2.9582927E-001	1.4191995E+000	-1.2031416E+001	7.879488214239245E+000	-2.9240809E-002	2.7322626E-001	8.4474134E+000	3.6704487E-001	1.000000000000000E+000	9	1.0784619E-002	7.5990860E-003	0	4.640849473741320E-004	6.8914443E-001	1.4687715E-001	7.0462257E-001	1.2031416E+001	3.6704495E+002	1.7221667E+003	1.7608464E+003	-7.7968582E+001	0.0000000E+000	0.0000000E+000	0.0000000E+000	7.7968582E+001	0.0000000E+000	0.0000000E+000	0.0000000E+000	-7.7968582E+001	0.0000000E+000	0.0000000E+000	0.0000000E+000	-1.2031416E+001	0.0000000E+000	0.0000000E+000	0.0000000E+000	1.2031416E+001	4.6919785E+000	7.7968582E+001	1.281508119625247E-004	-3.863628514211175E-003	-7.9893571E-006	1.0702049E+002
4.3488348E+004	1.4359373E+000	3.7803820E-001	1.4848666E+000	-1.4749533E+001	9.557489227241604E+000	-2.9236969E-002	2.6962894E-001	9.6808071E+000	6.2749177E-001	1.000000000000000E+000	9	1.0096558E-002	6.7996397E-003	0	5.945374465512836E-004	6.5126926E-001	1.7145921E-001	6.7346114E-001	1.4749533E+001	6.2749182E+002	2.3834595E+003	2.4646755E+003	-7.5250465E+001	0.0000000E+000	0.0000000E+000	0.0000000E+000	7.5250465E+001	0.0000000E+000	0.0000000E+000	0.0000000E+000	-7.5250465E+001	0.0000000E+000	0.0000000E+000	0.0000000E+000	-1.4749533E+001	0.0000000E+000	0.0000000E+000	0.0000000E+000	1.4749533E+001	3.7983921E+000	7.5250465E+001	1.304524991771516E-004	-4.949679674505814E-003	-7.8831326E-006	1.0843409E+002
2.9700492E+004	1.4850328E+000	4.8580843E-001	1.5624763E+000	-1.8114811E+001	1.096049116054201E+001	-2.9233892E-002	2.7231300E-001	1.1030404E+001	1.0663375E+000	1.000000000000000E+000	9	9.9888183E-003	6.3929409E-003	0	6.965104429687943E-004	6.0828787E-001	1.9899318E-001	6.4000970E-001	1.8114811E+001	1.0663373E+003	3.2596101E+003	3.4295967E+003	-7.1885193E+001	0.0000000E+000	0.0000000E+000	0.0000000E+000	7.1885193E+001	0.0000000E+000	0.0000000E+000	0.0000000E+000	-7.1885193E+001	0.0000000E+000	0.0000000E+000	0.0000000E+000	-1.8114811E+001	0.0000000E+000	0.0000000E+000	0.0000000E+000	1.8114811E+001	3.0568280E+000	7.1885193E+001	1.019729964175107E-004	-5.798631528832234E-003	-7.9607689E-006	1.0735400E+002
2.0282809E+004	1.5372276E+000	6.3689911E-001	1.6639439E+000	-2.2505045E+001	1.236050186704961E+001	-2.9235328E-002	2.6783961E-001	1.2320303E+001	1.8050337E+000	1.000000000000000E+000	9	9.2829140E-003	5.5788625E-003	0	7.966217152719489E-004	5.5521458E-001	2.3003468E-001	6.0098183E-001	2.2505045E+001	1.8050337E+003	4.3566523E+003	4.7157783E+003	-6.7494957E+001	0.0000000E+000	0.0000000E+000	0.0000000E+000	6.7494957E+001	0.0000000E+000	0.0000000E+000	0.0000000E+000	-6.7494957E+001	0.0000000E+000	0.0000000E+000	0.0000000E+000	-2.2505045E+001	0.0000000E+000	0.0000000E+000	0.0000000E+000	2.2505045E+001	2.4136124E+000	6.7494957E+001	1.001112723031547E-004	-6.632084043189711E-003	-7.8303792E-006	1.0915237E+002
1.3852805E+004	1.5976583E+000	8.5223174E-001	1.8107487E+000	-2.8076601E+001	1.376247622698429E+001	-2.9233966E-002	2.7471745E-001	1.3481080E+001	2.9862335E+000	1.000000000000000E+000	9	9.0343617E-003	4.9892962E-003	0	9.057263823846329E-004	4.8726761E-001	2.5992101E-001	5.5225778E-001	2.8076601E+001	2.9862334E+003	5.5982197E+003	6.3448921E+003	-6.1923401E+001	0.0000000E+000	0.0000000E+000	0.0000000E+000	6.1923401E+001	0.0000000E+000	0.0000000E+000	0.0000000E+000	-6.1923401E+001	0.0000000E+000	0.0000000E+000	0.0000000E+000	-2.8076601E+001	0.0000000E+000	0.0000000E+000	0.0000000E+000	2.8076601E+001	1.8746759E+000	6.1923401E+001	1.091046671126839E-004	-7.540408920510610E-003	-8.0310811E-006	1.0641467E+002
9.4616006E+003	1.6751286E+000	1.1608515E+000	2.0380461E+000	-3.4721664E+001	1.516225221348577E+001	-2.9232102E-002	2.7022535E-001	1.4490351E+001	4.7011509E+000	1.000000000000000E+000	9	9.0055503E-003	4.4187177E-003	0	1.012197644655541E-003	4.0329251E-001	2.7947864E-001	4.9066603E-001	3.4721664E+001	4.7011509E+003	6.7838418E+003	8.2535645E+003	-5.5278336E+001	0.0000000E+000	0.0000000E+000	0.0000000E+000	5.5278336E+001	0.0000000E+000	0.0000000E+000	0.0000000E+000	-5.5278336E+001	0.0000000E+000	0.0000000E+000	0.0000000E+000	-3.4721664E+001	0.0000000E+000	0.0000000E+000	0.0000000E+000	3.4721664E+001	1.4430171E+000	5.5278336E+001	1.064712622709081E-004	-8.426810014063653E-003	-7.8992543E-006	1.0817676E+002
6.4600942E+003	1.7860053E+000	1.6072791E+000	2.4027402E+000	-4.1984985E+001	1.701372227479442E+001	-2.9124076E-002	3.4550902E-001	1.5328159E+001	6.8589702E+000	1.000000000000000E+000	9	9.0115843E-003	3.7505447E-003	0	1.189156967395231E-003	3.0936348E-001	2.7840537E-001	4.1619146E-001	4.1984985E+001	6.8589702E+003	7.6216738E+003	1.0253555E+004	-4.8015015E+001	0.0000000E+000	0.0000000E+000	0.0000000E+000	4.8015015E+001	0.0000000E+000	0.0000000E+000	0.0000000E+000	-4.8015015E+001	0.0000000E+000	0.0000000E+000	0.0000000E+000	-4.1984985E+001	0.0000000E+000	0.0000000E+000	0.0000000E+000	4.1984985E+001	1.1111979E+000	4.8015015E+001	1.769593227396900E-004	-9.900042638955019E-003	-1.0062631E-005	8.4293243E+001
4.4114111E+003	1.9651662E+000	2.2547936E+000	2.9909818E+000	-4.8926208E+001	1.946668329797103E+001	-2.9157622E-002	3.2733583E-001	1.6000584E+001	9.0933075E+000	1.000000000000000E+000	9	9.8899398E-003	3.3065863E-003	0	1.406659436490083E-003	2.1967050E-001	2.5204566E-001	3.3433837E-001	4.8926208E+001	9.0933066E+003	7.9252749E+003	1.2062264E+004	-4.1073792E+001	0.0000000E+000	0.0000000E+000	0.0000000E+000	4.1073792E+001	0.0000000E+000	0.0000000E+000	0.0000000E+000	-4.1073792E+001	0.0000000E+000	0.0000000E+000	0.0000000E+000	-4.8926208E+001	0.0000000E+000	0.0000000E+000	0.0000000E+000	4.8926208E+001	8.7155038E-001	4.1073792E+001	2.175024690948518E-004	-1.171080755658709E-002	-9.5443347E-006	8.9075554E+001
3.0109636E+003	2.3184741E+000	3.1756544E+000	3.9319336E+000	-5.3867657E+001	2.194968026924471E+001	-2.9159058E-002	3.4493171E-002	1.6644907E+001	1.0857641E+001	1.000000000000000E+000	10	1.0131788E-002	2.5767952E-003	0	1.454254187843491E-003	1.4996499E-001	2.0540968E-001	2.5432780E-001	5.3867657E+001	1.0857642E+004	7.9269204E+003	1.3443379E+004	-3.6132343E+001	0.0000000E+000	0.0000000E+000	0.0000000E+000	3.6132343E+001	0.0000000E+000	0.0000000E+000	0.0000000E+000	-3.6132343E+001	0.0000000E+000	0.0000000E+000	0.0000000E+000	-5.3867657E+001	0.0000000E+000	0.0000000E+000	0.0000000E+000	5.3867657E+001	7.3007756E-001	3.6132339E+001	4.759475135340785E-005	-1.210704630446350E-002	-1.0057884E-006	8.4535742E+002
2.0556577E+003	2.9839172E+000	4.3656821E+000	5.2880001E+000	-5.5647633E+001	2.417867488178308E+001	-2.9155347E-002	3.5438474E-002	1.7734430E+001	1.2087557E+001	1.000000000000000E+000	10	9.8991971E-003	1.8720115E-003	0	1.476674527953909E-003	1.0670969E-001	1.5612383E-001	1.8910740E-001	5.5647633E+001	1.2087557E+004	8.2617705E+003	1.4641239E+004	-3.4352367E+001	0.0000000E+000	0.0000000E+000	0.0000000E+000	3.4352367E+001	0.0000000E+000	0.0000000E+000	0.0000000E+000	-3.4352367E+001	0.0000000E+000	0.0000000E+000	0.0000000E+000	-5.5647633E+001	0.0000000E+000	0.0000000E+000	0.0000000E+000	5.5647633E+001	6.8349391E-001	3.4352371E+001	2.242034011041855E-005	-1.229370149730925E-002	-1.0332210E-006	8.2270325E+002
1.4036521E+003	4.1163387E+000	5.7363000E+000	7.0604095E+000	-5.4336975E+001	2.640794466764783E+001	-2.9152680E-002	3.4729932E-002	1.9766455E+001	1.3047663E+001	1.000000000000000E+000	10	9.7625284E-003	1.3827141E-003	0	1.497588471903789E-003	8.2575522E-002	1.1507263E-001	1.4163484E-001	5.4336975E+001	1.3047663E+004	9.3629355E+003	1.6059454E+004	-3.5663025E+001	0.0000000E+000	0.0000000E+000	0.0000000E+000	3.5663025E+001	0.0000000E+000	0.0000000E+000	0.0000000E+000	-3.5663025E+001	0.0000000E+000	0.0000000E+000	0.0000000E+000	-5.4336975E+001	0.0000000E+000	0.0000000E+000	0.0000000E+000	5.4336975E+001	7.1759474E-001	3.5663025E+001	2.091394394987986E-005	-1.246781554829619E-002	-1.0124705E-006	8.3941083E+002
9.5907898E+002	5.7861824E+000	7.1041899E+000	9.1623917E+000	-5.0838058E+001	2.863697208018857E+001	-2.9154060E-002	3.5544720E-002	2.3358837E+001	1.4043088E+001	1.000000000000000E+000	10	9.6869012E-003	1.0572459E-003	0	1.518820953965084E-003	6.8924628E-002	8.4624648E-002	1.0914181E-001	5.0838058E+001	1.4043088E+004	1.1437738E+004	1.8111604E+004	-3.9161942E+001	0.0000000E+000	0.0000000E+000	0.0000000E+000	3.9161942E+001	0.0000000E+000	0.0000000E+000	0.0000000E+000	-3.9161942E+001	0.0000000E+000	0.0000000E+000	0.0000000E+000	-5.0838058E+001	0.0000000E+000	0.0000000E+000	0.0000000E+000	5.0838058E+001	8.1447464E-001	3.9161942E+001	2.123248206129446E-005	-1.264458151233716E-002	-1.0362729E-006	8.2020795E+002
6.5520966E+002	7.9643030E+000	8.2856359E+000	1.1492688E+001	-4.6132843E+001	3.086270098591922E+001	-2.9154470E-002	3.4383114E-002	2.9316626E+001	1.5237806E+001	1.000000000000000E+000	10	9.6504875E-003	8.3970668E-004	0	1.540490201377814E-003	6.0298223E-002	6.2731057E-002	8.7011844E-002	4.6132843E+001	1.5237807E+004	1.4646854E+004	2.1135777E+004	-4.3867157E+001	0.0000000E+000	0.0000000E+000	0.0000000E+000	4.3867157E+001	0.0000000E+000	0.0000000E+000	0.0000000E+000	-4.3867157E+001	0.0000000E+000	0.0000000E+000	0.0000000E+000	-4.6132843E+001	0.0000000E+000	0.0000000E+000	0.0000000E+000	4.6132843E+001	9.6121806E-001	4.3867157E+001	2.166924741273091E-005	-1.282498366211392E-002	-1.0024215E-006	8.4792987E+002
4.4743405E+002	1.0493995E+001	9.1216440E+000	1.3904255E+001	-4.0997990E+001	3.308066765127296E+001	-2.9156111E-002	3.4412947E-002	3.8995811E+001	1.6782969E+001	1.000000000000000E+000	10	9.6346466E-003	6.9292792E-004	0	1.560885428433277E-003	5.4280695E-002	4.7182143E-002	7.1920432E-002	4.0997990E+001	1.6782967E+004	1.9307963E+004	2.5582521E+004	-4.9002010E+001	0.0000000E+000	0.0000000E+000	0.0000000E+000	4.9002010E+001	0.0000000E+000	0.0000000E+000	0.0000000E+000	-4.9002010E+001	0.0000000E+000	0.0000000E+000	0.0000000E+000	-4.0997990E+001	0.0000000E+000	0.0000000E+000	0.0000000E+000	4.0997990E+001	1.1504499E+000	4.9002014E+001	2.039522705546306E-005	-1.299477925934489E-002	-1.0033477E-006	8.4724249E+002
3.0548877E+002	1.3183684E+001	9.6074162E+000	1.6312939E+001	-3.6082146E+001	3.530445477020112E+001	-2.9150536E-002	3.5018913E-002	5.4227337E+001	1.8809059E+001	1.000000000000000E+000	10	9.6247448E-003	5.9000682E-004	0	1.582006008626337E-003	4.9541868E-002	3.6102910E-002	6.1301034E-002	3.6082146E+001	1.8809061E+004	2.5810551E+004	3.1936896E+004	-5.3917854E+001	0.0000000E+000	0.0000000E+000	0.0000000E+000	5.3917854E+001	0.0000000E+000	0.0000000E+000	0.0000000E+000	-5.3917854E+001	0.0000000E+000	0.0000000E+000	0.0000000E+000	-3.6082146E+001	0.0000000E+000	0.0000000E+000	0.0000000E+000	3.6082146E+001	1.3722404E+000	5.3917854E+001	2.112058019305952E-005	-1.317061361107793E-002	-1.0208202E-006	8.3242261E+002
2.0846568E+002	1.5879362E+001	9.7497797E+000	1.8633635E+001	-3.1549536E+001	3.755224925026414E+001	-2.9154526E-002	3.4871615E-002	7.8305229E+001	2.1438047E+001	1.000000000000000E+000	10	9.6222349E-003	5.1639066E-004	0	1.604054796390672E-003	4.5733862E-002	2.8080164E-002	5.3666394E-002	3.1549536E+001	2.1438049E+004	3.4915918E+004	4.0972078E+004	-5.8450462E+001	0.0000000E+000	0.0000000E+000	0.0000000E+000	5.8450462E+001	0.0000000E+000	0.0000000E+000	0.0000000E+000	-5.8450462E+001	0.0000000E+000	0.0000000E+000	0.0000000E+000	-3.1549536E+001	0.0000000E+000	0.0000000E+000	0.0000000E+000	3.1549536E+001	1.6286893E+000	5.8450462E+001	2.204878776433487E-005	-1.335417553350632E-002	-1.0166655E-006	8.3605322E+002
1.4241539E+002	1.8476265E+001	9.6857338E+000	2.0861107E+001	-2.7664686E+001	3.974937650127686E+001	-2.9156784E-002	3.3900198E-002	1.1538004E+002	2.4872593E+001	1.000000000000000E+000	10	9.6217822E-003	4.6123067E-004	0	1.624831714902259E-003	4.2456042E-002	2.2256549E-002	4.7936097E-002	2.7664686E+001	2.4872596E+004	4.7446340E+004	5.3570523E+004	-6.2335312E+001	0.0000000E+000	0.0000000E+000	0.0000000E+000	6.2335312E+001	0.0000000E+000	0.0000000E+000	0.0000000E+000	-6.2335312E+001	0.0000000E+000	0.0000000E+000	0.0000000E+000	-2.7664686E+001	0.0000000E+000	0.0000000E+000	0.0000000E+000	2.7664686E+001	1.9075751E+000	6.2335312E+001	2.077691851158723E-005	-1.352714881189644E-002	-9.8842077E-007	8.6007709E+002
9.7272247E+001	2.1049345E+001	9.5517740E+000	2.3115175E+001	-2.4407600E+001	4.218310541691608E+001	-2.9162789E-002	3.6315068E-003	1.7129597E+002	2.9249660E+001	1.000000000000000E+000	11	9.6288165E-003	4.1655824E-004	0	1.628411052857755E-003	3.9395284E-002	1.7876795E-002	4.3261625E-002	2.4407600E+001	2.9249660E+004	6.4457789E+004	7.0783820E+004	-6.5592400E+001	0.0000000E+000	0.0000000E+000	0.0000000E+000	6.5592400E+001	0.0000000E+000	0.0000000E+000	0.0000000E+000	-6.5592400E+001	0.0000000E+000	0.0000000E+000	0.0000000E+000	-2.4407600E+001	0.0000000E+000	0.0000000E+000	0.0000000E+000	2.4407600E+001	2.2037106E+000	6.5592400E+001	3.579337955496135E-006	-1.355694773613456E-002	-1.0590487E-007	8.0304927E+003
6.6380714E+001	2.3574423E+001	9.3444014E+000	2.5358849E+001	-2.1622324E+001	4.437560826775689E+001	-2.9162098E-002	3.4608813E-003	2.5658231E+002	3.4839397E+001	1.000000000000000E+000	11	9.6280184E-003	3.7967096E-004	0	1.630424674238369E-003	3.6659118E-002	1.4530896E-002	3.9433967E-002	2.1622324E+001	3.4839391E+004	8.7894203E+004	9.4547203E+004	-6.8377678E+001	0.0000000E+000	0.0000000E+000	0.0000000E+000	6.8377678E+001	0.0000000E+000	0.0000000E+000	0.0000000E+000	-6.8377678E+001	0.0000000E+000	0.0000000E+000	0.0000000E+000	-2.1622324E+001	0.0000000E+000	0.0000000E+000	0.0000000E+000	2.1622324E+001	2.5228393E+000	6.8377678E+001	2.013621380613992E-006	-1.357371166055612E-002	-1.0092656E-007	8.4262061E+003
4.5362904E+001	2.6046349E+001	8.9431276E+000	2.7538914E+001	-1.8950134E+001	4.658915818619425E+001	-2.9158629E-002	3.5918294E-003	3.9231046E+002	4.1372818E+001	1.000000000000000E+000	11	9.6264975E-003	3.4955982E-004	0	1.632651266065258E-003	3.4344185E-002	1.1792227E-002	3.6312252E-002	1.8950134E+001	4.1372820E+004	1.2049597E+005	1.2740090E+005	-7.1049866E+001	0.0000000E+000	0.0000000E+000	0.0000000E+000	7.1049866E+001	0.0000000E+000	0.0000000E+000	0.0000000E+000	-7.1049866E+001	0.0000000E+000	0.0000000E+000	0.0000000E+000	-1.8950134E+001	0.0000000E+000	0.0000000E+000	0.0000000E+000	1.8950134E+001	2.9124429E+000	7.1049866E+001	2.226591826888849E-006	-1.359224861962052E-002	-1.0473283E-007	8.1180439E+003
