!Agilent Technologies,E5061B,MY49304750,A.02.21
!Date: Tue Nov 15 12:05:26 2022
!Data & Calibration Information:
!Freq	S11:SOLT1(ON)	S21:NONE(--)	S12:NONE(--)	S22:SOLT1(ON)
# Hz S dB R 50
9000.000	-2.727960e+001	-1.189350e+001	1.441356e-001	-1.866246e-003	-2.000000e+002	0.000000e+000	-2.573901e+001	-8.820971e+000
1883994.375	-3.473500e+001	-1.688493e+001	-9.117564e-002	-1.063932e+001	-2.000000e+002	0.000000e+000	-3.180967e+001	-2.412197e+001
3758988.750	-3.809435e+001	-4.032813e+001	-1.340061e-001	-2.065818e+001	-2.000000e+002	0.000000e+000	-3.482228e+001	-5.796888e+001
5633983.125	-4.888177e+001	-1.214469e+001	-1.681394e-001	-3.078196e+001	-2.000000e+002	0.000000e+000	-4.485406e+001	-9.282368e+001
7508977.500	-3.999675e+001	5.692634e+001	-1.992839e-001	-4.080470e+001	-2.000000e+002	0.000000e+000	-4.375758e+001	8.930192e+001
9383971.875	-3.420870e+001	4.722901e+001	-2.287808e-001	-5.085389e+001	-2.000000e+002	0.000000e+000	-3.534639e+001	6.271496e+001
11258966.250	-3.108086e+001	3.236977e+001	-2.540192e-001	-6.087371e+001	-2.000000e+002	0.000000e+000	-3.168331e+001	4.329310e+001
13133960.625	-2.902083e+001	1.633273e+001	-2.743146e-001	-7.085127e+001	-2.000000e+002	0.000000e+000	-2.938307e+001	2.536365e+001
15008955.000	-2.770195e+001	-3.737475e-001	-2.944291e-001	-8.081365e+001	-2.000000e+002	0.000000e+000	-2.796013e+001	7.838004e+000
16883949.375	-2.685242e+001	-1.723281e+001	-3.107341e-001	-9.081443e+001	-2.000000e+002	0.000000e+000	-2.708589e+001	-9.401164e+000
18758943.750	-2.638779e+001	-3.425075e+001	-3.252168e-001	-1.007639e+002	-2.000000e+002	0.000000e+000	-2.662198e+001	-2.656166e+001
20633938.125	-2.625958e+001	-5.159790e+001	-3.415588e-001	-1.107389e+002	-2.000000e+002	0.000000e+000	-2.651113e+001	-4.368325e+001
22508932.500	-2.641050e+001	-6.909877e+001	-3.539612e-001	-1.207325e+002	-2.000000e+002	0.000000e+000	-2.672266e+001	-6.105951e+001
24383926.875	-2.678934e+001	-8.703242e+001	-3.695356e-001	-1.306902e+002	-2.000000e+002	0.000000e+000	-2.717596e+001	-7.867692e+001
26258921.250	-2.740796e+001	-1.056434e+002	-3.836447e-001	-1.406377e+002	-2.000000e+002	0.000000e+000	-2.790165e+001	-9.683822e+001
28133915.625	-2.819394e+001	-1.251786e+002	-3.972130e-001	-1.506129e+002	-2.000000e+002	0.000000e+000	-2.885549e+001	-1.161879e+002
30008910.000	-2.911264e+001	-1.460190e+002	-4.077327e-001	-1.606122e+002	-2.000000e+002	0.000000e+000	-2.998368e+001	-1.368603e+002
31883904.375	-3.008013e+001	-1.687430e+002	-4.181976e-001	-1.705552e+002	-2.000000e+002	0.000000e+000	-3.122172e+001	-1.599754e+002
33758898.750	-3.096744e+001	1.664787e+002	-4.331005e-001	1.794837e+002	-2.000000e+002	0.000000e+000	-3.232112e+001	1.737689e+002
35633893.125	-3.157425e+001	1.397752e+002	-4.448054e-001	1.695303e+002	-2.000000e+002	0.000000e+000	-3.311715e+001	1.449389e+002
37508887.500	-3.179774e+001	1.127833e+002	-4.538895e-001	1.595954e+002	-2.000000e+002	0.000000e+000	-3.326541e+001	1.147901e+002
39383881.875	-3.159315e+001	8.616069e+001	-4.649701e-001	1.496416e+002	-2.000000e+002	0.000000e+000	-3.277248e+001	8.643197e+001
41258876.250	-3.111394e+001	6.161888e+001	-4.759045e-001	1.397031e+002	-2.000000e+002	0.000000e+000	-3.200040e+001	6.095248e+001
43133870.625	-3.056547e+001	3.902956e+001	-4.860165e-001	1.297487e+002	-2.000000e+002	0.000000e+000	-3.114117e+001	3.860076e+001
45008865.000	-3.001780e+001	1.834824e+001	-4.962526e-001	1.198054e+002	-2.000000e+002	0.000000e+000	-3.038668e+001	1.860235e+001
46883859.375	-2.957294e+001	-9.411174e-001	-5.038370e-001	1.098576e+002	-2.000000e+002	0.000000e+000	-2.980011e+001	3.676817e-002
48758853.750	-2.929724e+001	-1.934094e+001	-5.133351e-001	9.991883e+001	-2.000000e+002	0.000000e+000	-2.938673e+001	-1.738455e+001
50633848.125	-2.915431e+001	-3.706623e+001	-5.207599e-001	8.997240e+001	-2.000000e+002	0.000000e+000	-2.918582e+001	-3.436810e+001
52508842.500	-2.917214e+001	-5.457696e+001	-5.307654e-001	8.002577e+001	-2.000000e+002	0.000000e+000	-2.913607e+001	-5.100957e+001
54383836.875	-2.931934e+001	-7.209724e+001	-5.382302e-001	7.008053e+001	-2.000000e+002	0.000000e+000	-2.928700e+001	-6.767798e+001
56258831.250	-2.965035e+001	-8.992731e+001	-5.458911e-001	6.012860e+001	-2.000000e+002	0.000000e+000	-2.959950e+001	-8.464527e+001
58133825.625	-3.009939e+001	-1.082120e+002	-5.561269e-001	5.017863e+001	-2.000000e+002	0.000000e+000	-3.005809e+001	-1.020604e+002
60008820.000	-3.065415e+001	-1.276091e+002	-5.662392e-001	4.023902e+001	-2.000000e+002	0.000000e+000	-3.068234e+001	-1.205168e+002
61883814.375	-3.131742e+001	-1.479604e+002	-5.752848e-001	3.030003e+001	-2.000000e+002	0.000000e+000	-3.140027e+001	-1.400552e+002
63758808.750	-3.197562e+001	-1.698420e+002	-5.849263e-001	2.035554e+001	-2.000000e+002	0.000000e+000	-3.216725e+001	-1.609160e+002
65633803.125	-3.254569e+001	1.668369e+002	-5.924982e-001	1.041703e+001	-2.000000e+002	0.000000e+000	-3.291442e+001	1.761638e+002
67508797.500	-3.292980e+001	1.421568e+002	-6.018544e-001	4.874768e-001	-2.000000e+002	0.000000e+000	-3.345944e+001	1.517306e+002
69383791.875	-3.303208e+001	1.169630e+002	-6.114952e-001	-9.459235e+000	-2.000000e+002	0.000000e+000	-3.371394e+001	1.260338e+002
71258786.250	-3.280909e+001	9.204613e+001	-6.189322e-001	-1.938102e+001	-2.000000e+002	0.000000e+000	-3.359645e+001	1.005287e+002
73133780.625	-3.236066e+001	6.845519e+001	-6.256207e-001	-2.931374e+001	-2.000000e+002	0.000000e+000	-3.321175e+001	7.641307e+001
75008775.000	-3.182781e+001	4.646388e+001	-6.336239e-001	-3.925128e+001	-2.000000e+002	0.000000e+000	-3.265616e+001	5.390943e+001
76883769.375	-3.126998e+001	2.611541e+001	-6.429415e-001	-4.917681e+001	-2.000000e+002	0.000000e+000	-3.207784e+001	3.331070e+001
78758763.750	-3.077367e+001	6.743981e+000	-6.501271e-001	-5.909900e+001	-2.000000e+002	0.000000e+000	-3.156898e+001	1.400934e+001
80633758.125	-3.038552e+001	-1.159563e+001	-6.563909e-001	-6.902745e+001	-2.000000e+002	0.000000e+000	-3.116329e+001	-4.020928e+000
82508752.500	-3.012304e+001	-2.923268e+001	-6.653281e-001	-7.897347e+001	-2.000000e+002	0.000000e+000	-3.092259e+001	-2.130494e+001
84383746.875	-2.996746e+001	-4.648835e+001	-6.720899e-001	-8.889807e+001	-2.000000e+002	0.000000e+000	-3.082814e+001	-3.821863e+001
86258741.250	-2.994705e+001	-6.353347e+001	-6.780100e-001	-9.883108e+001	-2.000000e+002	0.000000e+000	-3.088507e+001	-5.486501e+001
88133735.625	-3.005985e+001	-8.046546e+001	-6.852292e-001	-1.087725e+002	-2.000000e+002	0.000000e+000	-3.109491e+001	-7.151659e+001
90008730.000	-3.030699e+001	-9.754688e+001	-6.934764e-001	-1.187004e+002	-2.000000e+002	0.000000e+000	-3.147981e+001	-8.831825e+001
91883724.375	-3.065700e+001	-1.148161e+002	-6.991598e-001	-1.286305e+002	-2.000000e+002	0.000000e+000	-3.197210e+001	-1.054286e+002
93758718.750	-3.113208e+001	-1.327710e+002	-7.084437e-001	-1.385573e+002	-2.000000e+002	0.000000e+000	-3.263153e+001	-1.234583e+002
95633713.125	-3.169690e+001	-1.512591e+002	-7.142564e-001	-1.484854e+002	-2.000000e+002	0.000000e+000	-3.340984e+001	-1.424700e+002
97508707.500	-3.233062e+001	-1.702635e+002	-7.223560e-001	-1.584226e+002	-2.000000e+002	0.000000e+000	-3.425915e+001	-1.629509e+002
99383701.875	-3.301481e+001	1.694062e+002	-7.308898e-001	-1.683382e+002	-2.000000e+002	0.000000e+000	-3.513792e+001	1.749101e+002
101258696.250	-3.367398e+001	1.479961e+002	-7.359092e-001	-1.782719e+002	-2.000000e+002	0.000000e+000	-3.589324e+001	1.505083e+002
103133690.625	-3.425045e+001	1.254608e+002	-7.436474e-001	1.718017e+002	-2.000000e+002	0.000000e+000	-3.634455e+001	1.247306e+002
105008685.000	-3.463638e+001	1.022056e+002	-7.489870e-001	1.618783e+002	-2.000000e+002	0.000000e+000	-3.643167e+001	9.846881e+001
106883679.375	-3.490459e+001	7.854708e+001	-7.559880e-001	1.519589e+002	-2.000000e+002	0.000000e+000	-3.608370e+001	7.277722e+001
108758673.750	-3.493051e+001	5.486112e+001	-7.612000e-001	1.420258e+002	-2.000000e+002	0.000000e+000	-3.556673e+001	4.876987e+001
110633668.125	-3.476947e+001	3.174453e+001	-7.679675e-001	1.320999e+002	-2.000000e+002	0.000000e+000	-3.491469e+001	2.655360e+001
112508662.500	-3.452851e+001	9.214336e+000	-7.750169e-001	1.221769e+002	-2.000000e+002	0.000000e+000	-3.427559e+001	5.781961e+000
114383656.875	-3.422988e+001	-1.210204e+001	-7.811837e-001	1.122469e+002	-2.000000e+002	0.000000e+000	-3.368571e+001	-1.377061e+001
116258651.250	-3.393181e+001	-3.282462e+001	-7.860720e-001	1.023293e+002	-2.000000e+002	0.000000e+000	-3.322667e+001	-3.289740e+001
118133645.625	-3.367963e+001	-5.336879e+001	-7.928044e-001	9.239836e+001	-2.000000e+002	0.000000e+000	-3.289648e+001	-5.175332e+001
120008640.000	-3.346988e+001	-7.360220e+001	-7.986236e-001	8.247498e+001	-2.000000e+002	0.000000e+000	-3.265414e+001	-7.059737e+001
121883634.375	-3.329968e+001	-9.352301e+001	-8.064447e-001	7.255163e+001	-2.000000e+002	0.000000e+000	-3.252312e+001	-8.953412e+001
123758628.750	-3.316302e+001	-1.139084e+002	-8.120550e-001	6.262071e+001	-2.000000e+002	0.000000e+000	-3.248650e+001	-1.089837e+002
125633623.125	-3.300033e+001	-1.342972e+002	-8.194531e-001	5.268983e+001	-2.000000e+002	0.000000e+000	-3.248431e+001	-1.287950e+002
127508617.500	-3.295784e+001	-1.547694e+002	-8.268077e-001	4.277927e+001	-2.000000e+002	0.000000e+000	-3.250331e+001	-1.491764e+002
129383611.875	-3.282736e+001	-1.754289e+002	-8.340390e-001	3.284967e+001	-2.000000e+002	0.000000e+000	-3.249814e+001	-1.703647e+002
131258606.250	-3.272860e+001	1.638459e+002	-8.403428e-001	2.293739e+001	-2.000000e+002	0.000000e+000	-3.246047e+001	1.682561e+002
133133600.625	-3.258441e+001	1.429772e+002	-8.464249e-001	1.302460e+001	-2.000000e+002	0.000000e+000	-3.231905e+001	1.467725e+002
135008595.000	-3.245635e+001	1.225948e+002	-8.543712e-001	3.113986e+000	-2.000000e+002	0.000000e+000	-3.212797e+001	1.254231e+002
136883589.375	-3.230970e+001	1.024790e+002	-8.606955e-001	-6.798709e+000	-2.000000e+002	0.000000e+000	-3.186971e+001	1.044539e+002
138758583.750	-3.221006e+001	8.247950e+001	-8.666287e-001	-1.672320e+001	-2.000000e+002	0.000000e+000	-3.156057e+001	8.389803e+001
140633578.125	-3.213218e+001	6.286811e+001	-8.715147e-001	-2.663388e+001	-2.000000e+002	0.000000e+000	-3.126388e+001	6.407486e+001
142508572.500	-3.209853e+001	4.337238e+001	-8.773088e-001	-3.654684e+001	-2.000000e+002	0.000000e+000	-3.099732e+001	4.496607e+001
144383566.875	-3.213441e+001	2.437156e+001	-8.834036e-001	-4.644889e+001	-2.000000e+002	0.000000e+000	-3.077305e+001	2.612529e+001
146258561.250	-3.222768e+001	5.217025e+000	-8.869961e-001	-5.637319e+001	-2.000000e+002	0.000000e+000	-3.063455e+001	8.009143e+000
148133555.625	-3.243035e+001	-1.366940e+001	-8.939265e-001	-6.628432e+001	-2.000000e+002	0.000000e+000	-3.058732e+001	-9.989151e+000
150008550.000	-3.270747e+001	-3.303303e+001	-8.987700e-001	-7.619280e+001	-2.000000e+002	0.000000e+000	-3.062015e+001	-2.784631e+001
151883544.375	-3.305981e+001	-5.259652e+001	-9.041644e-001	-8.610591e+001	-2.000000e+002	0.000000e+000	-3.074794e+001	-4.555808e+001
153758538.750	-3.353912e+001	-7.283495e+001	-9.103080e-001	-9.602377e+001	-2.000000e+002	0.000000e+000	-3.099749e+001	-6.344036e+001
155633533.125	-3.401152e+001	-9.367220e+001	-9.151598e-001	-1.059374e+002	-2.000000e+002	0.000000e+000	-3.135308e+001	-8.171509e+001
157508527.500	-3.452397e+001	-1.154478e+002	-9.204167e-001	-1.158486e+002	-2.000000e+002	0.000000e+000	-3.178428e+001	-1.003904e+002
159383521.875	-3.501663e+001	-1.386157e+002	-9.262699e-001	-1.257677e+002	-2.000000e+002	0.000000e+000	-3.229350e+001	-1.198360e+002
161258516.250	-3.537651e+001	-1.625458e+002	-9.323263e-001	-1.356799e+002	-2.000000e+002	0.000000e+000	-3.283423e+001	-1.400777e+002
163133510.625	-3.557875e+001	1.726481e+002	-9.383975e-001	-1.456004e+002	-2.000000e+002	0.000000e+000	-3.342222e+001	-1.613134e+002
165008505.000	-3.552276e+001	1.479758e+002	-9.425930e-001	-1.555222e+002	-2.000000e+002	0.000000e+000	-3.393270e+001	1.765356e+002
166883499.375	-3.527705e+001	1.237790e+002	-9.483032e-001	-1.654365e+002	-2.000000e+002	0.000000e+000	-3.430282e+001	1.533532e+002
168758493.750	-3.494595e+001	1.005536e+002	-9.548595e-001	-1.753522e+002	-2.000000e+002	0.000000e+000	-3.454300e+001	1.295233e+002
170633488.125	-3.449502e+001	7.828919e+001	-9.598741e-001	1.747264e+002	-2.000000e+002	0.000000e+000	-3.460474e+001	1.058475e+002
172508482.500	-3.406189e+001	5.720644e+001	-9.657631e-001	1.648109e+002	-2.000000e+002	0.000000e+000	-3.445908e+001	8.273284e+001
174383476.875	-3.360733e+001	3.709356e+001	-9.704095e-001	1.548960e+002	-2.000000e+002	0.000000e+000	-3.423524e+001	6.027162e+001
176258471.250	-3.333083e+001	1.760875e+001	-9.752909e-001	1.449767e+002	-2.000000e+002	0.000000e+000	-3.400421e+001	3.880808e+001
