!Agilent Technologies,N5230A,MY45001566,A.07.50.37
!Agilent N5230A: A.07.50.37
!Date: Monday, September 07, 2020 12:03:03
!Correction: S11(Full 1 Port(1)) 
!S1P File: Measurement: S11:
# Hz S  RI   R 50
300000  9.996352e-001  -2.935464e-002 
304985  1.001314e+000  -2.928433e-002 
309970  1.000194e+000  -3.071057e-002 
314955  1.000884e+000  -2.987626e-002 
319940  1.000627e+000  -3.140821e-002 
324925  1.001338e+000  -3.081180e-002 
329910  9.999971e-001  -3.248376e-002 
334895  1.000092e+000  -3.137248e-002 
339880  9.991550e-001  -3.105048e-002 
344865  9.991179e-001  -3.286914e-002 
349850  1.000256e+000  -3.339815e-002 
354835  9.997375e-001  -3.334772e-002 
359820  9.995714e-001  -3.361996e-002 
364805  1.000318e+000  -3.407613e-002 
369790  1.000372e+000  -3.555781e-002 
374775  9.993581e-001  -3.556820e-002 
379760  9.990779e-001  -3.574518e-002 
384745  9.999884e-001  -3.567054e-002 
389730  9.993587e-001  -3.657438e-002 
394715  9.987247e-001  -3.709010e-002 
399700  9.989333e-001  -3.663717e-002 
404685  9.986712e-001  -3.742261e-002 
409670  9.991572e-001  -3.805806e-002 
414655  9.993889e-001  -3.915619e-002 
419640  9.994394e-001  -3.925784e-002 
424625  9.980973e-001  -3.968519e-002 
429610  9.984071e-001  -3.925698e-002 
434595  9.986231e-001  -4.013968e-002 
439580  9.989271e-001  -4.039323e-002 
444565  9.982942e-001  -4.094229e-002 
449550  9.990447e-001  -4.206955e-002 
454535  9.984264e-001  -4.223070e-002 
459520  9.977732e-001  -4.264575e-002 
464505  9.980257e-001  -4.334581e-002 
469490  9.985703e-001  -4.295610e-002 
474475  9.984257e-001  -4.421581e-002 
479460  9.979956e-001  -4.414673e-002 
484445  9.983464e-001  -4.442138e-002 
489430  9.975374e-001  -4.493916e-002 
494415  9.970970e-001  -4.525878e-002 
499400  9.981139e-001  -4.595461e-002 
504385  9.975994e-001  -4.627407e-002 
509370  9.976023e-001  -4.643049e-002 
514355  9.970008e-001  -4.657554e-002 
519340  9.981733e-001  -4.690637e-002 
524325  9.978665e-001  -4.770284e-002 
529310  9.975370e-001  -4.831798e-002 
534295  9.974525e-001  -4.860402e-002 
539280  9.967265e-001  -4.838063e-002 
544265  9.972962e-001  -4.891643e-002 
549250  9.968979e-001  -4.970844e-002 
554235  9.972440e-001  -4.979298e-002 
559220  9.972782e-001  -5.051562e-002 
564205  9.970093e-001  -5.056559e-002 
569190  9.971168e-001  -5.149598e-002 
574175  9.971638e-001  -5.182097e-002 
579160  9.969799e-001  -5.210614e-002 
584145  9.967577e-001  -5.257088e-002 
589130  9.962612e-001  -5.301251e-002 
594115  9.964359e-001  -5.345085e-002 
599100  9.964449e-001  -5.340799e-002 
604085  9.958270e-001  -5.375762e-002 
609070  9.959953e-001  -5.466966e-002 
614055  9.961916e-001  -5.490404e-002 
619040  9.959202e-001  -5.523415e-002 
624025  9.963497e-001  -5.562790e-002 
629010  9.958696e-001  -5.634416e-002 
633995  9.953809e-001  -5.656765e-002 
638980  9.957580e-001  -5.644891e-002 
643965  9.959489e-001  -5.755419e-002 
648950  9.955277e-001  -5.739813e-002 
653935  9.952649e-001  -5.805641e-002 
658920  9.950196e-001  -5.849687e-002 
663905  9.954975e-001  -5.857568e-002 
668890  9.948040e-001  -5.909460e-002 
673875  9.947214e-001  -5.928240e-002 
678860  9.947376e-001  -6.013505e-002 
683845  9.949434e-001  -6.026838e-002 
688830  9.945613e-001  -6.036700e-002 
693815  9.943380e-001  -6.085866e-002 
698800  9.942242e-001  -6.135791e-002 
703785  9.945800e-001  -6.145140e-002 
708770  9.947898e-001  -6.207432e-002 
713755  9.942879e-001  -6.246964e-002 
718740  9.943321e-001  -6.242539e-002 
723725  9.942323e-001  -6.351823e-002 
728710  9.940541e-001  -6.352883e-002 
733695  9.942454e-001  -6.354317e-002 
738680  9.943331e-001  -6.421157e-002 
743665  9.938565e-001  -6.440303e-002 
748650  9.941643e-001  -6.488925e-002 
753635  9.937789e-001  -6.572360e-002 
758620  9.938179e-001  -6.614804e-002 
763605  9.937744e-001  -6.635686e-002 
