#  HZ   S   DB   R     50.00 
! Rohde & Schwarz ZVB20 4Ports - Version 3.90 - 1145.1010k22 SN: 100142
! Date: 2023-02-16 16:11:35
! Measurement: S11 
! 
 1.000000000000000E7    -2.919260498776258E-2  -3.986450852710957E-1  
 1.115214464320062E7     5.962342379093472E-2  -6.661413176384908E-1  
 1.230428928640123E7     8.070613877158482E-2  -4.848417949431454E-1  
 1.345643392960185E7    -1.047623588007765E-1  -5.514921153866597E-1  
 1.460857857280246E7    -1.063597086922647E-1  -6.851039120698944E-1  
 1.576072321600308E7     1.731300866981849E-2  -2.754489137944583E-1  
 1.691286785920369E7    -1.437535723200187E-1  -2.377976632330755E-1  
 1.806501250240431E7    -4.083787406388581E-2  -6.885593116557764E-1  
 1.921715714560492E7     2.596397670090832E-2  -7.855883515798223E-1  
 2.036930178880554E7    -1.454275976687858E-2  -8.398777021239982E-1  
 2.152144643200615E7     1.486253607356101E-2  -6.417810329776377E-1  
 2.267359107520677E7    -3.935389520515515E-2  -8.213391924753023E-1  
 2.382573571840739E7    -2.707502158161019E-2  -1.246164280471752  
 2.497788036160800E7    -1.397047108106052E-3  -1.483276048255387  
 2.613002500480862E7    -5.736549293852487E-2  -1.260768754080970  
 2.728216964800923E7    -2.805152938293606E-2  -1.326480920176828  
 2.843431429120985E7     1.161174664645616E-2  -1.435669113662357  
 2.958645893441046E7     1.061605263290727E-2  -1.494751543907462  
 3.073860357761108E7    -1.313619905680842E-2  -1.480076535346527  
 3.189074822081170E7    -9.047097649895313E-3  -1.684552178721180  
 3.304289286401231E7    -2.108952741736723E-2  -1.810703904332638  
 3.419503750721292E7    -4.412674675037001E-4  -1.675853672963718  
 3.534718215041354E7    -1.375760355388185E-2  -1.571662076141744  
 3.649932679361416E7    -8.855862309432361E-3  -1.787010932759716  
 3.765147143681477E7     1.022299387518165E-3  -1.952000148391764  
 3.880361608001538E7    -4.742854842512219E-3  -1.894699102988562  
 3.995576072321600E7    -1.034763102279361E-2  -2.101089886566757  
 4.110790536641662E7    -1.074182483685459E-2  -2.108261856046722  
 4.226005000961723E7     5.998532146322923E-3  -2.053381013727544  
 4.341219465281785E7    -1.785077884958694E-2  -2.052126258593545  
 4.456433929601847E7     1.313245656688860E-2  -2.175726002347284  
 4.571648393921908E7    -4.088227517941619E-3  -2.205321165705759  
 4.686862858241969E7     3.207679567473655E-3  -2.254823378531455  
 4.802077322562031E7    -5.415068897672263E-4  -2.328765318152135  
 4.917291786882092E7    -3.061468642219325E-3  -2.437430525406239  
 5.032506251202154E7    -1.222434983645862E-2  -2.384754223580857  
 5.147720715522216E7    -3.675246015576466E-3  -2.423007098597986  
 5.262935179842277E7    -7.956051791336349E-3  -2.452607801834730  
 5.378149644162339E7    -1.248861820929907E-2  -2.719814059785961  
 5.493364108482400E7     5.695553463332093E-3  -2.566191425828078  
 5.608578572802462E7     5.310960843541088E-4  -2.796359222725057  
 5.723793037122523E7    -2.592999056708545E-3  -2.718933369126193  
 5.839007501442584E7    -1.767569454621560E-2  -2.792865397447799  
 5.954221965762647E7    -3.856722823407480E-3  -2.848497687711436  
 6.069436430082708E7     2.129049431442923E-4  -2.946346118365287  
 6.184650894402769E7    -2.323111996466287E-3  -3.086856386701539  
 6.299865358722831E7     2.030275576422267E-3  -3.062504317604454  
 6.415079823042893E7    -3.399508374001313E-3  -3.061987142506077  
 6.530294287362954E7    -5.611994123984905E-3  -3.163298902521326  
 6.645508751683015E7    -3.715695486890861E-3  -3.336401222839108  
 6.760723216003077E7     2.972749204147784E-3  -3.257786775650843  
 6.875937680323139E7    -9.125280786490259E-4  -3.362871713368218  
 6.991152144643199E7     1.441925198384067E-3  -3.485612573212193  
 7.106366608963262E7    -1.160045320502303E-3  -3.570663671165595  
 7.221581073283324E7    -1.194255040527544E-2  -3.579612263156243  
 7.336795537603384E7    -1.999236120069598E-4  -3.643929650712534  
 7.452010001923446E7     3.735717323955658E-3  -3.731819261876964  
 7.567224466243509E7    -2.321166177051629E-3  -3.760871356779655  
 7.682438930563569E7    -2.971502227516464E-3  -3.853783965945044  
 7.797653394883631E7    -8.001656563976918E-3  -3.865874723412439  
 7.912867859203693E7    -3.007597317322644E-4  -3.926625737422091  
 8.028082323523754E7    -9.603165744745842E-4  -3.980478361080352  
 8.143296787843816E7    -2.130630133103461E-3  -4.071333277347059  
 8.258511252163877E7    -2.742814582755896E-3  -4.086790234910640  
 8.373725716483939E7    -5.986014211249303E-3  -4.169566637251049  
 8.488940180804001E7    -4.495723235275362E-3  -4.212403773571508  
 8.604154645124061E7    -1.329630270746421E-3  -4.227994174559525  
 8.719369109444124E7    -1.361487103222109E-3  -4.311837373791832  
 8.834583573764184E7    -1.219362990636367E-2  -4.384356640328265  
 8.949798038084246E7    -3.548265033762444E-3  -4.458498864086701  
 9.065012502404308E7    -7.917569156214433E-3  -4.491643326142402  
 9.180226966724369E7     6.467661622630848E-3  -4.567784603926635  
 9.295441431044431E7     1.673382488756879E-3  -4.569786543879324  
 9.410655895364493E7    -5.129081759798134E-3  -4.649302429752564  
 9.525870359684554E7     1.163150069150068E-2  -4.648268711250059  
 9.641084824004616E7    -2.397277037180018E-3  -4.755144572173077  
 9.756299288324678E7     8.864996667892242E-3  -4.716999184984576  
 9.871513752644739E7     3.765461168316353E-3  -4.831479300926906  
 9.986728216964801E7     1.089702791644090E-2  -4.905691592009133  
 1.010194268128486E8     2.553797865588832E-3  -5.000562631153417  
 1.021715714560492E8     1.114841793056825E-2  -5.082409685610603  
 1.033237160992499E8     3.742681045547855E-3  -5.095013147073619  
 1.044758607424505E8    -1.315809120511504E-2  -5.196298074042727  
 1.056280053856511E8    -2.226354720189764E-3  -5.213648717058276  
 1.067801500288517E8     2.298854265553776E-3  -5.318533181256809  
 1.079322946720523E8    -2.478586157568847E-3  -5.289374634265806  
 1.090844393152529E8    -9.607511770962597E-5  -5.338627035133761  
 1.102365839584535E8    -5.383133800250456E-3  -5.427985250913059  
 1.113887286016542E8    -5.431512713226839E-3  -5.538243389215277  
 1.125408732448548E8    -2.161834721241528E-3  -5.584780537477883  
 1.136930178880554E8    -8.055994375714389E-3  -5.650737146617956  
 1.148451625312560E8    -7.591453863413388E-4  -5.717758415014837  
 1.159973071744566E8     4.876991328415173E-3  -5.741822147772266  
 1.171494518176572E8    -8.032862319412826E-3  -5.838677501408055  
 1.183015964608579E8    -4.636258531107986E-3  -5.862574606883837  
