# HZ S RI R 50
50000 1.00918 -0.01937
30049499 0.774528 -0.343648
60048998 0.580512 -0.562989
90048497 0.330515 -0.678921
120047996 0.084663 -0.681225
150047495 -0.089258 -0.589661
180046994 -0.136395 -0.540778
210046493 -0.270035 -0.54848
240045992 -0.431065 -0.535579
270045491 -0.694694 -0.433097
300044990 -0.887809 -0.151334
330044489 -0.882589 0.251729
360043988 -0.718654 0.573784
390043487 -0.453675 0.789261
420042986 -0.135671 0.88539
450042485 0.188155 0.85633
480041984 0.477489 0.711616
510041483 0.684526 0.478377
540040982 0.785389 0.190906
570040481 0.76411 -0.114893
600039980 0.620824 -0.373697
630039479 0.389055 -0.552522
660038978 0.106861 -0.607815
690038477 -0.173923 -0.529016
720037976 -0.373045 -0.292991
750037475 -0.379616 -0.014487
780036974 -0.099123 0.243138
810036473 0.190611 0.143263
840035972 0.292645 -0.135698
870035471 0.131046 -0.367462
900034970 -0.104828 -0.459194
930034469 -0.375557 -0.399347
960033968 -0.576786 -0.186436
990033467 -0.643665 0.097573
1020032966 -0.594037 0.382867
1050032465 -0.392625 0.628606
1080031964 -0.124301 0.718995
1110031463 0.126892 0.752484
1140030962 0.411477 0.668279
1170030461 0.651184 0.478677
1200029960 0.77126 0.16437
1230029459 0.69541 -0.136954
1260028958 0.526153 -0.31584
1290028457 0.339841 -0.393413
1320027956 0.18582 -0.403383
1350027455 0.061349 -0.374694
1380026954 -0.012916 -0.29623
1410026453 -0.007194 -0.26532
1440025952 -0.051581 -0.318993
1470025451 -0.193954 -0.337059
1500024950 -0.347568 -0.266095
1530024449 -0.455479 -0.125364
1560023948 -0.489143 0.059926
1590023447 -0.467505 0.259843
1620022946 -0.365369 0.439848
1650022445 -0.204162 0.569689
1680021944 -0.013968 0.615545
1710021443 0.169118 0.606168
1740020942 0.336419 0.536626
1770020441 0.481815 0.434013
1800019940 0.586319 0.290948
1830019439 0.652043 0.127883
1860018938 0.653374 -0.050511
1890018437 0.621986 -0.234724
1920017936 0.540028 -0.433612
1950017435 0.367628 -0.609536
1980016934 0.114212 -0.69161
2010016433 -0.184831 -0.631467
2040015932 -0.408296 -0.453388
2070015431 -0.50895 -0.237643
2100014930 -0.546357 -0.059677
2130014429 -0.546749 0.116262
2160013928 -0.495267 0.332017
2190013427 -0.329655 0.527641
2220012926 -0.12545 0.600737
2250012425 0.054517 0.614288
2280011924 0.211906 0.555867
2310011423 0.329174 0.473694
2340010922 0.450828 0.367942
2370010421 0.516465 0.246744
2400009920 0.53884 0.142071
2430009419 0.548208 0.037612
2460008918 0.512866 -0.085935
2490008417 0.475587 -0.203631
2520007916 0.393896 -0.333263
2550007415 0.274311 -0.409743
2580006914 0.139328 -0.442509
2610006413 0.028108 -0.444194
2640005912 -0.113708 -0.413684
2670005411 -0.293968 -0.341829
2700004910 -0.44005 -0.204767
2730004409 -0.461646 -0.001703
2760003908 -0.389883 0.165907
2790003407 -0.316189 0.260498
2820002906 -0.250512 0.37285
2850002405 -0.159085 0.474583
2880001904 -0.03867 0.524615
2910001403 0.1045 0.544172
2940000902 0.266322 0.514859
