!    3/19/2024   3:16:14 PM 
! Ref Plane: 0.000 mm
# MHZ S MA R  50
!
3000.0000     1.00233       80.10         1.00E0        0.05           
3000.5500     1.0022        80.00         9.947E-1      -24.66         
3001.1000     1.00202       79.93         9.923E-1      -48.94         
3001.6500     1.00225       79.85         9.888E-1      -73.17         
3002.2000     1.0022        79.78         9.867E-1      -97.46         
3002.7500     1.00198       79.70         9.86E-1       -121.69        
3003.3000     1.00219       79.61         9.84E-1       -145.83        
3003.8500     1.00205       79.53         9.818E-1      -170.01        
3004.4000     1.00221       79.44         9.804E-1      165.80         
3004.9500     1.00229       79.37         9.785E-1      141.64         
3005.5000     1.00222       79.28         9.772E-1      117.49         
3006.0500     1.00226       79.19         9.758E-1      93.29          
3006.6000     1.00236       79.12         9.752E-1      69.18          
3007.1500     1.00232       79.04         9.737E-1      45.05          
3007.7000     1.00235       78.95         9.714E-1      20.89          
3008.2500     1.00229       78.87         9.711E-1      -3.23          
3008.8000     1.00227       78.80         9.703E-1      -27.39         
3009.3500     1.00215       78.72         9.693E-1      -51.48         
3009.9000     1.00222       78.63         9.69E-1       -75.63         
3010.4500     1.00228       78.55         9.677E-1      -99.70         
3011.0000     1.00238       78.48         9.673E-1      -123.83        
3011.5500     1.00235       78.39         9.657E-1      -148.00        
3012.1000     1.00225       78.30         9.653E-1      -172.11        
3012.6500     1.00248       78.23         9.648E-1      163.74         
3013.2000     1.00241       78.15         9.641E-1      139.63         
3013.7500     1.00239       78.07         9.64E-1       115.52         
3014.3000     1.00224       78.00         9.625E-1      91.42          
3014.8500     1.00233       77.92         9.616E-1      67.28          
3015.4000     1.00229       77.84         9.617E-1      43.11          
3015.9500     1.00223       77.75         9.61E-1       18.99          
3016.5000     1.00236       77.66         9.606E-1      -5.14          
3017.0500     1.00216       77.59         9.60E-1       -29.26         
3017.6000     1.00237       77.51         9.592E-1      -53.36         
3018.1500     1.00213       77.43         9.585E-1      -77.50         
3018.7000     1.00235       77.35         9.58E-1       -101.65        
3019.2500     1.00227       77.28         9.58E-1       -125.78        
3019.8000     1.00217       77.20         9.569E-1      -149.88        
3020.3500     1.00221       77.12         9.568E-1      -174.01        
3020.9000     1.00216       77.03         9.56E-1       161.88         
3021.4500     1.00208       76.95         9.558E-1      137.67         
3022.0000     1.00219       76.88         9.55E-1       113.64         
3022.5500     1.00201       76.80         9.551E-1      89.53          
3023.1000     1.00203       76.72         9.533E-1      65.33          
3023.6500     1.00202       76.64         9.53E-1       41.24          
3024.2000     1.00199       76.57         9.53E-1       17.12          
3024.7500     1.00194       76.50         9.526E-1      -7.01          
3025.3000     1.0018        76.41         9.525E-1      -31.14         
3025.8500     1.00184       76.34         9.524E-1      -55.23         
3026.4000     1.00176       76.26         9.51E-1       -79.35         
3026.9500     1.00168       76.19         9.508E-1      -103.48        
3027.5000     1.00141       76.11         9.501E-1      -127.58        
3028.0500     1.00158       76.03         9.50E-1       -151.70        
3028.6000     1.00154       75.96         9.494E-1      -175.85        
3029.1500     1.0018        75.87         9.49E-1       160.05         
3029.7000     1.00156       75.81         9.49E-1       135.92         
3030.2500     1.00152       75.74         9.482E-1      111.82         
3030.8000     1.00142       75.66         9.472E-1      87.68          
3031.3500     1.00164       75.57         9.466E-1      63.55          
3031.9000     1.00146       75.51         9.466E-1      39.49          
3032.4500     1.00124       75.44         9.469E-1      15.33          
3033.0000     1.00115       75.37         9.468E-1      -8.77          
3033.5500     1.00127       75.29         9.465E-1      -32.91         
3034.1000     1.00134       75.21         9.453E-1      -57.04         
3034.6500     1.00099       75.13         9.445E-1      -81.15         
3035.2000     1.00114       75.07         9.439E-1      -105.22        
3035.7500     1.00112       74.99         9.435E-1      -129.28        
3036.3000     1.00104       74.91         9.444E-1      -153.41        
3036.8500     1.001         74.85         9.446E-1      -177.54        
3037.4000     1.00102       74.78         9.447E-1      158.32         
3037.9500     1.00088       74.70         9.434E-1      134.16         
3038.5000     1.00073       74.63         9.423E-1      110.03         
3039.0500     1.00081       74.55         9.412E-1      85.91          
3039.6000     1.0007        74.49         9.412E-1      61.87          
3040.1500     1.00053       74.41         9.414E-1      37.79          
3040.7000     1.0007        74.33         9.423E-1      13.74          
3041.2500     1.00047       74.27         9.43E-1       -10.39         
3041.8000     1.0004        74.21         9.43E-1       -34.55         
3042.3500     1.00034       74.12         9.422E-1      -58.70         
3042.9000     1.00032       74.06         9.417E-1      -82.82         
3043.4500     1.00034       73.98         9.404E-1      -106.97        
3044.0000     1.00018       73.92         9.397E-1      -131.04        
3044.5500     1.00011       73.84         9.399E-1      -155.09        
3045.1000     1.00024       73.80         9.407E-1      -179.19        
3045.6500     1.00011       73.73         9.419E-1      156.71         
3046.2000     1.00004       73.64         9.424E-1      132.54         
3046.7500     0.99994       73.57         9.422E-1      108.33         
3047.3000     0.99996       73.51         9.407E-1      84.16          
3047.8500     0.99995       73.44         9.39E-1       60.09          
3048.4000     0.99984       73.36         9.381E-1      36.04          
3048.9500     0.99978       73.30         9.379E-1      12.02          
3049.5000     0.99974       73.23         9.392E-1      -12.04         
3050.0500     1.00003       73.16         9.413E-1      -36.16         
3050.6000     0.99969       73.08         9.428E-1      -60.37         
3051.1500     0.99993       73.03         9.428E-1      -84.59         
3051.7000     0.99962       72.96         9.413E-1      -108.78        
3052.2500     0.99965       72.89         9.387E-1      -132.93        
3052.8000     0.99957       72.82         9.373E-1      -156.94        
3053.3500     0.99948       72.76         9.375E-1      179.10         
3053.9000     0.99945       72.69         9.392E-1      155.05         
3054.4500     0.99947       72.63         9.419E-1      130.95         
3055.0000     0.99979       72.54         9.435E-1      106.76         
3055.5500     0.99946       72.49         9.436E-1      82.44          
3056.1000     0.99944       72.42         9.417E-1      58.25          
3056.6500     0.99938       72.35         9.389E-1      34.14          
3057.2000     0.99942       72.29         9.37E-1       10.10          
3057.7500     0.99933       72.23         9.371E-1      -13.82         
3058.3000     0.9994        72.15         9.389E-1      -37.82         
3058.8500     0.99924       72.07         9.41E-1       -66.19         
3059.4000     0.9991        72.02         9.436E-1      -86.65         
3059.9500     0.99922       71.96         9.436E-1      -110.59        
3060.5000     0.99917       71.89         9.409E-1      -134.82        
3061.0500     0.99906       71.84         9.378E-1      -158.99        
3061.6000     0.99934       71.75         9.356E-1      177.09         
3062.1500     0.99951       71.66         9.358E-1      153.26         
3062.7000     0.99921       71.62         9.383E-1      129.29         
3063.2500     0.99923       71.55         9.418E-1      105.13         
3063.8000     0.9989        71.48         9.446E-1      80.82          
3064.3500     0.99934       71.40         9.445E-1      56.53          
3064.9000     0.99912       71.32         9.422E-1      32.17          
3065.4500     0.99918       71.28         9.373E-1      8.06           
3066.0000     0.99921       71.20         9.347E-1      -15.86         
3066.5500     0.99928       71.14         9.341E-1      -39.71         
3067.1000     0.99896       71.06         9.373E-1      -63.62         
3067.6500     0.9989        70.99         9.417E-1      -87.81         
3068.2000     0.99895       70.93         9.449E-1      -112.17        
3068.7500     0.9993        70.87         9.444E-1      -136.60        
3069.3000     0.99921       70.79         9.403E-1      -160.90        
3069.8500     0.99905       70.73         9.352E-1      174.99         
3070.4000     0.99895       70.66         9.314E-1      151.11         
3070.9500     0.99881       70.60         9.315E-1      127.33         
3071.5000     0.99899       70.52         9.358E-1      103.45         
3072.0500     0.99862       70.45         9.42E-1       79.35          
3072.6000     0.99906       70.37         9.455E-1      54.96          
3073.1500     0.99887       70.32         9.453E-1      30.43          
3073.7000     0.99908       70.25         9.399E-1      6.02           
3074.2500     0.99913       70.19         9.329E-1      -18.08         
3074.8000     0.99886       70.12         9.288E-1      -41.84         
3075.3500     0.99871       70.03         9.291E-1      -65.53         
3075.9000     0.99874       69.97         9.342E-1      -89.39         
3076.4500     0.9989        69.89         9.418E-1      -113.49        
3077.0000     0.99889       69.84         9.47E-1       -137.95        
3077.5500     0.99879       69.76         9.456E-1      -162.56        
3078.1000     0.99882       69.70         9.389E-1      173.00         
3078.6500     0.99861       69.62         9.316E-1      148.90         
3079.2000     0.99857       69.57         9.261E-1      125.14         
3079.7500     0.99859       69.48         9.254E-1      101.51         
3080.3000     0.99873       69.41         9.318E-1      77.79          
3080.8500     0.99848       69.34         9.404E-1      53.69          
3081.4000     0.99854       69.28         9.467E-1      29.17          
3081.9500     0.99861       69.20         9.467E-1      4.52           
3082.5000     0.99863       69.13         9.399E-1      -19.97         
3083.0500     0.99851       69.07         9.305E-1      -44.08         
3083.6000     0.99866       69.01         9.223E-1      -67.77         
3084.1500     0.9984        68.94         9.227E-1      -91.29         
3084.7000     0.99856       68.86         9.29E-1       -114.98        
3085.2500     0.99829       68.80         9.382E-1      -139.10        
3085.8000     0.99819       68.73         9.467E-1      -163.62        
3086.3500     0.99834       68.66         9.475E-1      171.67         
3086.9000     0.99855       68.60         9.398E-1      147.07         
3087.4500     0.99835       68.52         9.285E-1      122.96         
3088.0000     0.99824       68.46         9.199E-1      99.29          
3088.5500     0.99824       68.39         9.186E-1      75.87          
3089.1000     0.99827       68.32         9.253E-1      52.33          
3089.6500     0.99828       68.24         9.371E-1      28.31          
3090.2000     0.9984        68.18         9.469E-1      3.77           
3090.7500     0.99825       68.12         9.484E-1      -21.06         
3091.3000     0.99823       68.04         9.408E-1      -45.78         
3091.8500     0.99827       67.97         9.286E-1      -69.99         
3092.4000     0.99779       67.92         9.188E-1      -93.65         
3092.9500     0.9982        67.86         9.167E-1      -117.04        
3093.5000     0.99802       67.78         9.234E-1      -140.54        
3094.0500     0.99804       67.70         9.353E-1      -164.56        
3094.6000     0.99799       67.63         9.456E-1      170.91         
3095.1500     0.99809       67.58         9.483E-1      145.98         
3095.7000     0.99811       67.50         9.404E-1      121.31         
3096.2500     0.99826       67.44         9.272E-1      97.07          
3096.8000     0.99808       67.34         9.184E-1      73.38          
3097.3500     0.99836       67.30         9.158E-1      50.02          
3097.9000     0.99802       67.22         9.213E-1      26.51          
3098.4500     0.99801       67.15         9.328E-1      2.55           
3099.0000     0.99806       67.09         9.43E-1       -21.89         
3099.5500     0.99813       67.02         9.466E-1      -46.68         
3100.1000     0.99809       66.95         9.392E-1      -71.40         
3100.6500     0.99822       66.88         9.284E-1      -95.76         
3101.2000     0.99789       66.81         9.173E-1      -119.53        
3101.7500     0.99813       66.74         9.139E-1      -142.96        
3102.3000     0.99787       66.68         9.206E-1      -166.41        
3102.8500     0.99783       66.59         9.322E-1      169.76         
3103.4000     0.99794       66.53         9.436E-1      145.27         
3103.9500     0.99813       66.46         9.462E-1      120.46         
3104.5000     0.99788       66.39         9.40E-1       95.60          
3105.0500     0.99803       66.33         9.29E-1       71.27          
3105.6000     0.99786       66.23         9.182E-1      47.53          
3106.1500     0.99799       66.16         9.146E-1      24.02          
3106.7000     0.99823       66.09         9.207E-1      0.62           
3107.2500     0.99793       66.03         9.309E-1      -23.28         
3107.8000     0.99799       65.94         9.409E-1      -47.70         
3108.3500     0.99807       65.88         9.45E-1       -72.50         
3108.9000     0.99782       65.79         9.398E-1      -97.35         
3109.4500     0.99803       65.74         9.282E-1      -121.64        
3110.0000     0.99803       65.64         9.169E-1      -145.44        
3110.5500     0.99789       65.58         0.00E0        0.00           
3111.1000     0.99799       65.50         0.00E0        0.00           
3111.6500     0.99789       65.41         0.00E0        0.00           
3112.2000     0.99789       65.34         0.00E0        0.00           
3112.7500     0.99796       65.28         0.00E0        0.00           
3113.3000     0.998         65.19         0.00E0        0.00           
3113.8500     0.99798       65.11         0.00E0        0.00           
3114.4000     0.99775       65.02         0.00E0        0.00           
3114.9500     0.99773       64.96         0.00E0        0.00           
3115.5000     0.99786       64.88         0.00E0        0.00           
3116.0500     0.99757       64.79         0.00E0        0.00           
3116.6000     0.99808       64.71         0.00E0        0.00           
3117.1500     0.99779       64.63         0.00E0        0.00           
3117.7000     0.99775       64.55         0.00E0        0.00           
3118.2500     0.99778       64.48         0.00E0        0.00           
3118.8000     0.99756       64.39         0.00E0        0.00           
3119.3500     0.99715       64.32         0.00E0        0.00           
3119.9000     0.99762       64.23         0.00E0        0.00           
3120.4500     0.99747       64.14         0.00E0        0.00           
3121.0000     0.99732       64.08         0.00E0        0.00           
3121.5500     0.99761       63.99         0.00E0        0.00           
3122.1000     0.99754       63.92         0.00E0        0.00           
3122.6500     0.99741       63.83         0.00E0        0.00           
3123.2000     0.9973        63.73         0.00E0        0.00           
3123.7500     0.9973        63.67         0.00E0        0.00           
3124.3000     0.99727       63.59         0.00E0        0.00           
3124.8500     0.99732       63.50         0.00E0        0.00           
3125.4000     0.99712       63.42         0.00E0        0.00           
3125.9500     0.99709       63.34         0.00E0        0.00           
3126.5000     0.99695       63.25         0.00E0        0.00           
3127.0500     0.99703       63.19         0.00E0        0.00           
3127.6000     0.99683       63.10         0.00E0        0.00           
3128.1500     0.9967        63.03         0.00E0        0.00           
3128.7000     0.99661       62.93         0.00E0        0.00           
3129.2500     0.99672       62.86         0.00E0        0.00           
3129.8000     0.99663       62.77         0.00E0        0.00           
3130.3500     0.99633       62.68         0.00E0        0.00           
3130.9000     0.99655       62.61         0.00E0        0.00           
3131.4500     0.99605       62.52         0.00E0        0.00           
3132.0000     0.99627       62.43         0.00E0        0.00           
3132.5500     0.99628       62.35         0.00E0        0.00           
3133.1000     0.99585       62.27         0.00E0        0.00           
3133.6500     0.99574       62.20         0.00E0        0.00           
3134.2000     0.99578       62.12         0.00E0        0.00           
3134.7500     0.99569       62.03         0.00E0        0.00           
3135.3000     0.99557       61.94         0.00E0        0.00           
3135.8500     0.99536       61.88         0.00E0        0.00           
3136.4000     0.99528       61.77         0.00E0        0.00           
3136.9500     0.99516       61.70         0.00E0        0.00           
3137.5000     0.99491       61.60         0.00E0        0.00           
3138.0500     0.99491       61.53         0.00E0        0.00           
3138.6000     0.99491       61.43         0.00E0        0.00           
3139.1500     0.99496       61.34         0.00E0        0.00           
3139.7000     0.9948        61.25         0.00E0        0.00           
3140.2500     0.99469       61.17         0.00E0        0.00           
3140.8000     0.99437       61.07         0.00E0        0.00           
3141.3500     0.99449       61.00         0.00E0        0.00           
3141.9000     0.99398       60.90         0.00E0        0.00           
3142.4500     0.9938        60.82         0.00E0        0.00           
3143.0000     0.99377       60.72         0.00E0        0.00           
3143.5500     0.99374       60.63         0.00E0        0.00           
3144.1000     0.99328       60.57         0.00E0        0.00           
3144.6500     0.99325       60.48         0.00E0        0.00           
3145.2000     0.99305       60.39         0.00E0        0.00           
3145.7500     0.99309       60.28         0.00E0        0.00           
3146.3000     0.99267       60.21         0.00E0        0.00           
3146.8500     0.99265       60.11         0.00E0        0.00           
3147.4000     0.99216       60.03         0.00E0        0.00           
3147.9500     0.9922        59.95         0.00E0        0.00           
3148.5000     0.99197       59.86         0.00E0        0.00           
3149.0500     0.99198       59.77         0.00E0        0.00           
3149.6000     0.99152       59.67         0.00E0        0.00           
3150.1500     0.99126       59.60         0.00E0        0.00           
3150.7000     0.9912        59.50         0.00E0        0.00           
3151.2500     0.99072       59.40         0.00E0        0.00           
