!  Empty  20/06/2024   09:59:35 
! Ref Plane: 0,000 mm
# MHZ S MA R  50
!
2500,0000     0,98082       153,40        9,881E-5      -158,91        
2500,5000     0,981         153,34        1,529E-4      148,61         
2501,0000     0,98123       153,27        6,855E-5      -133,94        
2501,5000     0,98126       153,19        3,129E-5      105,87         
2502,0000     0,98115       153,13        1,243E-4      9,38           
2502,5000     0,98124       153,06        7,187E-5      1,63           
2503,0000     0,9809        152,97        1,501E-4      -72,37         
2503,5000     0,98106       152,91        1,515E-4      18,57          
2504,0000     0,98077       152,84        3,579E-5      170,41         
2504,5000     0,98079       152,79        1,68E-4       123,28         
2505,0000     0,98047       152,68        9,803E-5      4,42           
2505,5000     0,98069       152,64        9,796E-6      -45,68         
2506,0000     0,98039       152,56        1,301E-4      -40,65         
2506,5000     0,98072       152,49        1,234E-4      -162,02        
2507,0000     0,98064       152,40        4,084E-5      157,24         
2507,5000     0,98045       152,33        9,642E-5      87,06          
2508,0000     0,97993       152,29        5,716E-5      -157,36        
2508,5000     0,98047       152,20        1,092E-4      -118,52        
2509,0000     0,9802        152,14        1,473E-4      -110,19        
2509,5000     0,97976       152,07        3,83E-5       32,64          
2510,0000     0,9802        151,97        8,284E-5      -120,78        
2510,5000     0,98009       151,92        1,033E-4      -167,41        
2511,0000     0,97979       151,85        1,182E-4      -74,69         
2511,5000     0,97965       151,78        8,743E-5      75,34          
2512,0000     0,97981       151,70        1,029E-4      75,95          
2512,5000     0,9801        151,62        7,786E-5      11,34          
2513,0000     0,9798        151,57        5,395E-5      57,34          
2513,5000     0,97971       151,49        1,463E-4      118,99         
2514,0000     0,97941       151,41        1,086E-4      -30,70         
2514,5000     0,97962       151,34        1,072E-4      -101,15        
2515,0000     0,97946       151,28        4,53E-5       2,92           
2515,5000     0,97973       151,22        2,171E-4      141,92         
2516,0000     0,97965       151,13        7,733E-5      -5,89          
2516,5000     0,97947       151,06        1,604E-4      -126,50        
2517,0000     0,97968       150,99        7,356E-5      -46,30         
2517,5000     0,97981       150,92        4,63E-5       56,16          
2518,0000     0,98          150,85        1,79E-4       54,85          
2518,5000     0,9794        150,76        1,151E-4      39,83          
2519,0000     0,97958       150,70        1,461E-4      -87,52         
2519,5000     0,97956       150,63        1,681E-4      -34,01         
2520,0000     0,97927       150,56        4,68E-5       174,51         
2520,5000     0,97934       150,49        8,98E-5       -136,31        
2521,0000     0,97974       150,40        3,685E-5      -164,20        
2521,5000     0,97956       150,33        1,221E-4      -8,70          
2522,0000     0,97953       150,26        8,918E-5      32,96          
2522,5000     0,97946       150,20        1,168E-4      145,86         
2523,0000     0,97961       150,13        4,877E-5      -89,93         
2523,5000     0,97971       150,04        1,298E-4      -18,52         
2524,0000     0,97956       149,97        1,964E-4      -88,21         
2524,5000     0,97976       149,88        4,231E-5      -132,25        
2525,0000     0,97938       149,83        1,422E-4      -26,03         
2525,5000     0,9795        149,74        3,67E-5       -73,19         
2526,0000     0,97938       149,68        1,483E-4      146,04         
2526,5000     0,97934       149,59        2,133E-4      -116,07        
2527,0000     0,97942       149,52        1,093E-4      167,32         
2527,5000     0,97941       149,48        4,668E-5      -22,31         
2528,0000     0,97936       149,38        1,457E-4      106,60         
2528,5000     0,97934       149,30        1,551E-4      -21,99         
2529,0000     0,97931       149,23        1,876E-4      -135,21        
2529,5000     0,9795        149,17        1,491E-4      -131,39        
2530,0000     0,97965       149,09        1,864E-4      101,36         
2530,5000     0,97921       149,02        1,064E-4      62,89          
2531,0000     0,97905       148,94        1,331E-4      85,76          
2531,5000     0,97946       148,88        1,853E-4      33,79          
2532,0000     0,97938       148,80        8,314E-5      170,21         
2532,5000     0,97921       148,73        9,397E-5      -46,51         
2533,0000     0,97951       148,66        2,98E-5       -179,55        
2533,5000     0,97949       148,57        1,71E-4       -177,21        
2534,0000     0,9793        148,50        8,651E-5      100,86         
2534,5000     0,9794        148,44        1,382E-4      121,77         
2535,0000     0,97914       148,34        1,798E-5      84,71          
2535,5000     0,97912       148,29        1,463E-4      -6,66          
2536,0000     0,9788        148,23        1,129E-4      46,37          
2536,5000     0,9793        148,13        6,316E-5      -21,07         
2537,0000     0,97906       148,07        1,503E-4      131,21         
2537,5000     0,97916       147,99        4,218E-5      -4,13          
2538,0000     0,9788        147,92        1,073E-4      -88,97         
2538,5000     0,97908       147,84        1,305E-4      3,42           
2539,0000     0,97886       147,77        7,727E-5      -19,71         
2539,5000     0,97899       147,69        8,16E-5       45,93          
2540,0000     0,97887       147,63        1,924E-4      -0,08          
2540,5000     0,97886       147,56        1,141E-4      64,56          
2541,0000     0,97876       147,47        7,952E-5      65,97          
2541,5000     0,97877       147,39        1,843E-4      169,85         
2542,0000     0,97872       147,34        1,594E-4      -79,88         
2542,5000     0,97879       147,25        1,414E-4      -76,47         
2543,0000     0,97871       147,18        1,569E-4      177,44         
2543,5000     0,97891       147,11        4,345E-5      -92,49         
2544,0000     0,97865       147,04        2,448E-5      -35,73         
2544,5000     0,97866       146,96        1,341E-4      -62,04         
2545,0000     0,97853       146,89        7,457E-5      -155,15        
2545,5000     0,97849       146,82        5,05E-5       24,65          
2546,0000     0,97854       146,74        2,84E-5       -147,30        
2546,5000     0,97862       146,67        1,901E-4      -129,39        
2547,0000     0,9784        146,60        1,103E-4      91,74          
2547,5000     0,97811       146,53        8,997E-5      143,96         
2548,0000     0,97816       146,44        1,898E-4      139,76         
2548,5000     0,97824       146,39        8,043E-5      -13,36         
2549,0000     0,97785       146,30        5,874E-5      -31,90         
2549,5000     0,97807       146,24        1,593E-4      158,38         
2550,0000     0,978         146,15        1,513E-4      143,03         
2550,5000     0,97787       146,08        1,704E-4      -118,86        
2551,0000     0,97785       146,02        2,654E-4      -171,07        
2551,5000     0,9781        145,94        7,935E-5      -99,30         
2552,0000     0,9778        145,87        3,861E-5      -145,79        
2552,5000     0,97778       145,80        1,204E-4      25,15          
2553,0000     0,97777       145,73        1,667E-4      -133,35        
2553,5000     0,97747       145,66        6,973E-5      56,48          
2554,0000     0,97752       145,56        9,393E-5      155,87         
2554,5000     0,97803       145,51        1,791E-4      139,55         
2555,0000     0,97762       145,40        1,807E-4      24,00          
2555,5000     0,9776        145,36        1,125E-4      -121,92        
2556,0000     0,9777        145,30        1,977E-4      126,07         
2556,5000     0,97747       145,22        1,208E-5      3,46           
2557,0000     0,97737       145,11        1,894E-4      114,85         
2557,5000     0,97719       145,05        6,684E-5      -150,83        
2558,0000     0,97729       144,99        1,074E-4      -135,74        
2558,5000     0,97733       144,92        6,998E-5      174,29         
2559,0000     0,97756       144,83        1,536E-4      88,24          
2559,5000     0,9771        144,77        1,149E-4      29,55          
2560,0000     0,97721       144,70        1,71E-5       -179,94        
2560,5000     0,97738       144,63        1,63E-5       -10,75         
2561,0000     0,97741       144,54        5,951E-5      90,46          
2561,5000     0,97712       144,48        9,296E-5      150,11         
2562,0000     0,97723       144,38        1,147E-4      -18,85         
2562,5000     0,97727       144,32        1,28E-4       -124,08        
2563,0000     0,97745       144,24        1,938E-4      163,40         
2563,5000     0,97733       144,17        9,995E-5      78,04          
2564,0000     0,97688       144,09        1,366E-4      -3,02          
2564,5000     0,97716       144,02        1,159E-4      5,87           
2565,0000     0,9768        143,95        7,105E-5      -127,18        
2565,5000     0,97712       143,88        1,04E-4       62,14          
2566,0000     0,97708       143,79        1,412E-4      -101,86        
2566,5000     0,97725       143,71        7,236E-5      -68,97         
2567,0000     0,97713       143,65        2,495E-4      57,33          
2567,5000     0,97701       143,59        7,344E-5      33,00          
2568,0000     0,97715       143,48        1,501E-4      -177,52        
2568,5000     0,97722       143,41        4,598E-5      -159,84        
2569,0000     0,97716       143,34        1,116E-4      84,80          
2569,5000     0,97728       143,26        5,269E-5      9,07           
2570,0000     0,97708       143,19        2,065E-4      95,22          
2570,5000     0,97725       143,10        8,523E-5      60,69          
2571,0000     0,97712       143,02        1,165E-4      -117,82        
2571,5000     0,97717       142,94        7,79E-5       80,27          
2572,0000     0,9772        142,85        1,301E-4      -70,84         
2572,5000     0,97694       142,78        2,714E-4      -99,97         
2573,0000     0,97702       142,70        5,877E-5      2,99           
2573,5000     0,97695       142,62        2,514E-4      170,56         
2574,0000     0,97706       142,55        8,046E-5      160,34         
2574,5000     0,97713       142,48        1,262E-4      52,82          
2575,0000     0,97677       142,39        1,591E-4      -118,76        
2575,5000     0,9769        142,32        2,335E-4      41,84          
2576,0000     0,97694       142,23        2,484E-4      -86,59         
2576,5000     0,97668       142,16        1,134E-4      105,04         
2577,0000     0,97677       142,10        2,583E-5      -128,51        
2577,5000     0,97644       142,03        1,614E-4      1,59           
2578,0000     0,97683       141,94        1,687E-5      -101,24        
2578,5000     0,97688       141,87        5,788E-5      40,68          
2579,0000     0,97649       141,79        1,032E-4      -69,54         
2579,5000     0,97678       141,72        1,267E-4      -14,36         
2580,0000     0,97691       141,67        5,604E-5      -87,66         
2580,5000     0,97678       141,56        2,559E-4      -67,81         
2581,0000     0,9769        141,48        2,746E-5      -68,45         
2581,5000     0,97678       141,41        1,023E-4      -161,79        
2582,0000     0,97656       141,32        1,085E-4      -15,92         
2582,5000     0,97697       141,24        4,356E-5      -90,35         
2583,0000     0,97704       141,17        5,936E-5      -171,35        
2583,5000     0,97673       141,09        1,174E-4      -172,25        
2584,0000     0,97683       141,00        6,373E-5      115,15         
2584,5000     0,97653       140,94        2,669E-4      131,41         
2585,0000     0,9771        140,84        7,246E-5      63,21          
2585,5000     0,97654       140,77        1,219E-4      94,54          
2586,0000     0,97695       140,70        1,158E-4      146,73         
2586,5000     0,97667       140,62        1,653E-4      95,99          
2587,0000     0,97668       140,55        4,595E-5      107,19         
2587,5000     0,97657       140,47        1,039E-4      54,16          
2588,0000     0,97709       140,39        1,604E-4      -124,47        
2588,5000     0,97648       140,31        1,111E-4      -21,41         
2589,0000     0,97659       140,25        1,414E-4      -52,42         
2589,5000     0,97658       140,15        6,099E-5      -90,04         
2590,0000     0,97648       140,07        9,34E-5       92,97          
2590,5000     0,97661       140,00        3,111E-5      131,11         
2591,0000     0,97634       139,93        1,415E-4      -6,78          
2591,5000     0,97684       139,83        6,987E-5      88,54          
2592,0000     0,97642       139,78        1,213E-4      -117,73        
2592,5000     0,97606       139,73        1,095E-4      32,21          
2593,0000     0,97674       139,63        1,622E-4      169,71         
2593,5000     0,97622       139,54        5,958E-5      -61,15         
2594,0000     0,97629       139,48        1,176E-4      84,45          
2594,5000     0,97613       139,39        7,535E-5      -67,28         
2595,0000     0,97641       139,31        2,479E-5      -5,52          
2595,5000     0,97678       139,26        9,83E-5       113,33         
2596,0000     0,97617       139,19        1,163E-5      -25,64         
2596,5000     0,97615       139,09        1,051E-4      62,41          
2597,0000     0,97623       139,00        1,56E-4       -73,91         
2597,5000     0,9765        138,95        1,654E-4      12,36          
2598,0000     0,97605       138,87        1,826E-4      106,55         
2598,5000     0,97632       138,81        1,205E-4      -148,63        
2599,0000     0,97637       138,73        4,549E-5      -147,93        
2599,5000     0,97651       138,63        1,749E-4      146,36         
2600,0000     0,976         138,59        8,61E-5       49,57          
2600,5000     0,97617       138,50        1,451E-4      -170,14        
2601,0000     0,97625       138,43        1,101E-4      -125,45        
2601,5000     0,97634       138,35        2,222E-4      -143,49        
2602,0000     0,97628       138,28        4,70E-5       -43,06         
2602,5000     0,97624       138,22        1,161E-4      43,39          
2603,0000     0,97619       138,14        7,385E-5      130,86         
2603,5000     0,97613       138,06        6,39E-5       22,27          
2604,0000     0,97617       138,00        1,937E-4      10,37          
2604,5000     0,97652       137,90        2,847E-5      143,90         
2605,0000     0,97617       137,83        5,808E-5      60,58          
2605,5000     0,97631       137,77        1,41E-4       -110,45        
2606,0000     0,97602       137,69        7,722E-5      85,31          
2606,5000     0,97617       137,65        3,241E-5      68,87          
2607,0000     0,97656       137,53        2,202E-4      168,64         
2607,5000     0,97578       137,48        5,86E-5       -12,25         
2608,0000     0,97645       137,43        1,808E-4      -176,93        
2608,5000     0,97606       137,32        1,495E-4      23,98          
2609,0000     0,9763        137,25        1,357E-4      -81,60         
2609,5000     0,97651       137,18        1,524E-4      -51,19         
2610,0000     0,97658       137,11        5,557E-5      -133,95        
2610,5000     0,97654       137,04        2,513E-6      15,74          
2611,0000     0,97617       136,97        5,894E-5      -71,77         
2611,5000     0,97656       136,89        1,034E-4      21,24          
2612,0000     0,97651       136,83        9,025E-5      -139,68        
2612,5000     0,97665       136,72        7,552E-5      -162,04        
2613,0000     0,97655       136,67        1,191E-5      111,12         
2613,5000     0,97668       136,58        3,313E-5      161,83         
2614,0000     0,97655       136,53        7,647E-5      108,50         
2614,5000     0,977         136,44        5,125E-5      -178,16        
2615,0000     0,97662       136,38        5,998E-5      -146,20        
2615,5000     0,97656       136,29        2,275E-5      47,51          
2616,0000     0,97669       136,21        2,34E-4       83,27          
2616,5000     0,97689       136,15        1,009E-4      -98,82         
2617,0000     0,97674       136,09        7,496E-5      166,83         
2617,5000     0,97683       136,01        2,147E-4      100,12         
2618,0000     0,97701       135,93        9,26E-5       85,01          
2618,5000     0,97707       135,87        7,231E-6      2,86           
2619,0000     0,97712       135,80        1,046E-4      -98,03         
2619,5000     0,97699       135,72        4,662E-5      -176,08        
2620,0000     0,97661       135,63        1,099E-4      76,27          
2620,5000     0,97699       135,56        1,118E-4      173,73         
2621,0000     0,9769        135,48        7,572E-5      25,82          
2621,5000     0,97663       135,43        1,552E-4      -74,90         
2622,0000     0,977         135,34        7,734E-5      -64,93         
2622,5000     0,97701       135,25        1,042E-4      -24,94         
2623,0000     0,97696       135,20        1,24E-4       167,85         
2623,5000     0,97701       135,12        7,693E-5      51,97          
2624,0000     0,97722       135,03        1,358E-4      -16,93         
2624,5000     0,97737       134,94        1,556E-4      3,67           
2625,0000     0,97701       134,87        3,45E-5       -154,74        
2625,5000     0,97735       134,79        8,847E-5      133,66         
2626,0000     0,97703       134,73        9,991E-5      124,52         
2626,5000     0,97738       134,64        6,891E-5      -49,30         
2627,0000     0,97771       134,58        5,516E-5      -17,66         
2627,5000     0,97743       134,50        1,366E-4      4,93           
2628,0000     0,9776        134,42        6,908E-5      174,54         
2628,5000     0,97755       134,33        8,751E-5      -60,43         
2629,0000     0,97746       134,26        1,257E-4      178,16         
2629,5000     0,97766       134,19        9,952E-5      18,56          
2630,0000     0,97751       134,13        1,105E-4      123,55         
2630,5000     0,97771       134,02        1,524E-4      -86,54         
2631,0000     0,97754       133,94        2,107E-4      24,15          
2631,5000     0,97767       133,88        1,142E-4      -67,88         
2632,0000     0,97744       133,79        1,375E-4      -41,30         
2632,5000     0,9774        133,71        1,921E-4      35,76          
2633,0000     0,97809       133,64        1,075E-4      -178,16        
2633,5000     0,97777       133,58        1,579E-4      37,26          
2634,0000     0,97791       133,50        1,179E-4      -167,99        
2634,5000     0,97758       133,42        1,405E-4      -35,15         
2635,0000     0,97784       133,33        1,132E-4      -11,24         
2635,5000     0,97807       133,28        4,514E-5      -127,02        
2636,0000     0,97797       133,19        1,918E-4      94,77          
2636,5000     0,97777       133,08        7,298E-5      125,39         
2637,0000     0,97786       133,03        1,757E-4      -123,41        
2637,5000     0,97805       132,94        4,933E-5      30,00          
