!Agilent Technologies,N5230A,MY45001566,A.07.50.37
!Agilent N5230A: A.07.50.37
!Date: Monday, September 07, 2020 12:05:33
!Correction: S11(Full 1 Port(1)) 
!S1P File: Measurement: S11:
# Hz S  RI   R 50
300000  9.995281e-001  -3.109775e-002 
304985  1.000519e+000  -3.120988e-002 
309970  1.001294e+000  -3.157071e-002 
314955  1.001367e+000  -3.174404e-002 
319940  1.000357e+000  -3.414876e-002 
324925  1.000864e+000  -3.346230e-002 
329910  1.000241e+000  -3.470636e-002 
334895  1.000663e+000  -3.306097e-002 
339880  1.000003e+000  -3.437627e-002 
344865  1.000133e+000  -3.565472e-002 
349850  1.000883e+000  -3.565511e-002 
354835  9.999382e-001  -3.628392e-002 
359820  1.001189e+000  -3.542694e-002 
364805  1.000831e+000  -3.749571e-002 
369790  9.996185e-001  -3.762688e-002 
374775  1.000268e+000  -3.831309e-002 
379760  1.000348e+000  -3.852405e-002 
384745  1.000955e+000  -3.955710e-002 
389730  1.000408e+000  -3.858016e-002 
394715  9.987555e-001  -3.983652e-002 
399700  1.000649e+000  -4.023221e-002 
404685  1.000086e+000  -3.993820e-002 
409670  9.994320e-001  -4.101665e-002 
414655  1.000474e+000  -4.164807e-002 
419640  9.998350e-001  -4.284052e-002 
424625  9.993279e-001  -4.260727e-002 
429610  9.993899e-001  -4.329305e-002 
434595  9.989602e-001  -4.377292e-002 
439580  9.990943e-001  -4.377537e-002 
444565  9.994276e-001  -4.398858e-002 
449550  9.992492e-001  -4.546894e-002 
454535  9.994951e-001  -4.566922e-002 
459520  9.984300e-001  -4.639974e-002 
464505  9.986868e-001  -4.689533e-002 
469490  9.988811e-001  -4.725282e-002 
474475  9.986538e-001  -4.837596e-002 
479460  9.986327e-001  -4.834950e-002 
484445  9.984101e-001  -4.841487e-002 
489430  9.987676e-001  -4.924441e-002 
494415  9.978663e-001  -4.980303e-002 
499400  9.983827e-001  -5.033718e-002 
504385  9.982283e-001  -5.099568e-002 
509370  9.980271e-001  -5.133748e-002 
514355  9.976054e-001  -5.232334e-002 
519340  9.986011e-001  -5.227756e-002 
524325  9.978905e-001  -5.341278e-002 
529310  9.978026e-001  -5.418529e-002 
534295  9.976693e-001  -5.489551e-002 
539280  9.972075e-001  -5.479933e-002 
544265  9.972140e-001  -5.546742e-002 
549250  9.973055e-001  -5.681295e-002 
554235  9.971863e-001  -5.833124e-002 
559220  9.971181e-001  -5.882309e-002 
564205  9.961702e-001  -5.995549e-002 
569190  9.967452e-001  -6.142044e-002 
574175  9.955021e-001  -6.339448e-002 
579160  9.952959e-001  -6.545387e-002 
584145  9.943470e-001  -6.778570e-002 
589130  9.919987e-001  -7.114840e-002 
594115  9.867547e-001  -7.620073e-002 
599100  9.666282e-001  -7.673109e-002 
604085  9.582579e-001  -5.439274e-002 
609070  9.678680e-001  -4.260131e-002 
614055  9.775292e-001  -4.082129e-002 
619040  9.820014e-001  -4.258397e-002 
624025  9.865959e-001  -4.362467e-002 
629010  9.900836e-001  -4.533080e-002 
633995  9.927976e-001  -4.733839e-002 
638980  9.938653e-001  -4.863388e-002 
643965  9.950224e-001  -5.081289e-002 
648950  9.950214e-001  -5.195541e-002 
653935  9.948143e-001  -5.318551e-002 
658920  9.951568e-001  -5.445885e-002 
663905  9.957876e-001  -5.528963e-002 
668890  9.953401e-001  -5.610704e-002 
673875  9.953374e-001  -5.704553e-002 
678860  9.950077e-001  -5.767063e-002 
683845  9.956723e-001  -5.837652e-002 
688830  9.953307e-001  -5.953833e-002 
693815  9.949118e-001  -5.998645e-002 
698800  9.954638e-001  -6.066123e-002 
703785  9.949353e-001  -6.113544e-002 
708770  9.956044e-001  -6.168576e-002 
713755  9.949071e-001  -6.282675e-002 
718740  9.953390e-001  -6.257319e-002 
723725  9.950519e-001  -6.388579e-002 
728710  9.946156e-001  -6.449119e-002 
733695  9.946390e-001  -6.444487e-002 
738680  9.946752e-001  -6.578114e-002 
743665  9.948268e-001  -6.645985e-002 
748650  9.945314e-001  -6.683973e-002 
753635  9.941891e-001  -6.784823e-002 
758620  9.943895e-001  -6.836624e-002 
763605  9.939154e-001  -6.872465e-002 
