#  HZ   S   DB   R     50.00 
! Rohde & Schwarz ZVB20 4Ports - Version 3.90 - 1145.1010k22 SN: 100142
! Date: 2023-02-16 15:49:24
! Measurement: S11 
! 
 1.000000000000000E7     4.474463494784874E-2  -9.990203944983084E-1  
 1.115214464320062E7    -7.480663379162042E-2  -6.304085985189606E-1  
 1.230428928640123E7     1.325339708256178E-2  -5.545848442328782E-1  
 1.345643392960185E7    -4.684372353627320E-2  -8.530906129716203E-1  
 1.460857857280246E7    -1.181211803953499E-1  -9.381544759787390E-1  
 1.576072321600308E7     3.501447670161991E-2  -1.024088160405794  
 1.691286785920369E7    -6.545876825510527E-2  -1.071459044546965  
 1.806501250240431E7     4.255602321646762E-2  -1.575395452248286  
 1.921715714560492E7     9.762418671511190E-2  -1.538137672166789  
 2.036930178880554E7    -3.827418722326963E-2  -1.463164283312395  
 2.152144643200615E7     2.469796048863973E-2  -1.531628811577529  
 2.267359107520677E7    -2.981937039303021E-2  -1.657323559937227  
 2.382573571840739E7    -3.315635505160310E-2  -2.020298104618389  
 2.497788036160800E7     1.732930741518308E-3  -2.063591055440974  
 2.613002500480862E7     5.879311267663198E-3  -2.208025249925823  
 2.728216964800923E7    -3.050177165589027E-2  -2.183944626392814  
 2.843431429120985E7     2.397039060163181E-2  -2.161833603443995  
 2.958645893441046E7     1.955980540511239E-2  -2.272410433110724  
 3.073860357761108E7    -4.436431835022243E-4  -2.292753851504736  
 3.189074822081170E7    -7.143486755598931E-3  -2.560972638055193  
 3.304289286401231E7    -7.249168987618954E-3  -2.581485973625172  
 3.419503750721292E7     2.758867365844571E-3  -2.618319415852319  
 3.534718215041354E7     9.664699156133820E-3  -2.684799023308617  
 3.649932679361416E7    -4.758791347262530E-3  -2.863559103631428  
 3.765147143681477E7     3.867032224917417E-3  -2.944981007171702  
 3.880361608001538E7    -1.236990635879406E-2  -3.017206233634159  
 3.995576072321600E7    -1.477499228379058E-2  -3.105863167971531  
 4.110790536641662E7     1.128492939276636E-3  -3.215490484693358  
 4.226005000961723E7    -8.799914332484183E-4  -3.255284184342649  
 4.341219465281785E7    -1.221549278494312E-2  -3.344857138639333  
 4.456433929601847E7     1.733361354946057E-2  -3.283193457159801  
 4.571648393921908E7    -4.855575737117679E-3  -3.572650770837911  
 4.686862858241969E7    -4.464800089673678E-3  -3.536770977783832  
 4.802077322562031E7    -8.870265525013774E-3  -3.609633926817992  
 4.917291786882092E7    -1.798285438235897E-3  -3.767196186870454  
 5.032506251202154E7    -1.680802411640316E-3  -3.826587237657262  
 5.147720715522216E7    -1.038026950790560E-2  -3.933688506328438  
 5.262935179842277E7    -1.203412565890620E-3  -3.927260418657526  
 5.378149644162339E7    -1.187696597567452E-2  -4.149440356195971  
 5.493364108482400E7     8.639892588600186E-3  -4.206853307141582  
 5.608578572802462E7    -4.126580568447268E-3  -4.314830536093604  
 5.723793037122523E7    -1.960396261754748E-2  -4.336255581607977  
 5.839007501442584E7    -1.406945240983591E-2  -4.410713887638561  
 5.954221965762647E7    -3.719539305807674E-3  -4.592186874182327  
 6.069436430082708E7    -7.705010332149750E-3  -4.604705654014053  
 6.184650894402769E7    -8.102614137539835E-4  -4.858962823498129  
 6.299865358722831E7     1.456807946265297E-2  -4.818126802512722  
 6.415079823042893E7     1.374315688762448E-3  -4.842754174767876  
 6.530294287362954E7     8.926914483029444E-3  -5.028439760087887  
 6.645508751683015E7    -1.129467419282607E-4  -5.124176992388668  
 6.760723216003077E7     4.190964224458991E-3  -5.139553348439972  
 6.875937680323139E7    -8.049027543771746E-4  -5.278598173198468  
 6.991152144643199E7     3.702100710976368E-3  -5.437618842057156  
 7.106366608963262E7    -3.199392249125874E-3  -5.510641243948615  
 7.221581073283324E7    -1.057723754700168E-3  -5.605383687937884  
 7.336795537603384E7    -7.493390233197287E-3  -5.629990769771688  
 7.452010001923446E7     7.071020080493660E-3  -5.796222892564274  
 7.567224466243509E7     3.667297086077975E-3  -5.846173859952843  
 7.682438930563569E7    -3.065054512634139E-3  -5.946219432282565  
 7.797653394883631E7    -6.635622140203862E-3  -6.036532405275059  
 7.912867859203693E7    -7.048152015943007E-4  -6.138570579116965  
 8.028082323523754E7     3.755475408800215E-3  -6.219612461350876  
 8.143296787843816E7     8.979171772317468E-4  -6.326631923705239  
 8.258511252163877E7    -2.910536010979496E-3  -6.394118030082035  
 8.373725716483939E7    -1.690863986724373E-3  -6.452209722858524  
 8.488940180804001E7    -2.762109484355449E-3  -6.564371672808324  
 8.604154645124061E7     2.511402398941538E-3  -6.650951761244423  
 8.719369109444124E7    -2.290900430852232E-3  -6.731061399800616  
 8.834583573764184E7    -5.469709108083699E-4  -6.768045527622054  
 8.949798038084246E7     4.614958061469185E-3  -6.963160173550281  
 9.065012502404308E7     4.425513419408167E-3  -7.010235612151617  
 9.180226966724369E7     5.291570682190017E-3  -7.063149274094357  
 9.295441431044431E7     1.061101819342956E-2  -7.141143899196609  
 9.410655895364493E7     5.515163238211188E-3  -7.265676903037811  
 9.525870359684554E7     1.337650927277978E-2  -7.282078991313065  
 9.641084824004616E7    -2.674801987260305E-3  -7.437875132904759  
 9.756299288324678E7    -1.793317331169705E-3  -7.483172604197431  
 9.871513752644739E7     2.061944912443327E-3  -7.595466720534545  
 9.986728216964801E7     2.180362991615737E-3  -7.664581095067517  
 1.010194268128486E8    -8.365225144183180E-3  -7.773277669347580  
 1.021715714560492E8     2.286537332040439E-3  -7.906218447550644  
 1.033237160992499E8     6.758801260850221E-4  -8.010988013155361  
 1.044758607424505E8    -4.984572334339163E-3  -8.089701052811781  
 1.056280053856511E8     5.233388718439261E-3  -8.171686619028876  
 1.067801500288517E8     7.638555856520913E-3  -8.311244021765880  
 1.079322946720523E8    -5.338972276006432E-3  -8.330636170160721  
 1.090844393152529E8    -2.284577098367258E-3  -8.426959728922535  
 1.102365839584535E8    -6.575227038508712E-3  -8.566143543677631  
 1.113887286016542E8    -4.962538121352473E-3  -8.644683795533142  
 1.125408732448548E8    -2.431368038812296E-3  -8.759326564792097  
 1.136930178880554E8    -9.482005491945549E-3  -8.819744967423468  
 1.148451625312560E8    -2.242545383237877E-4  -8.953419102936048  
 1.159973071744566E8     5.048003076143349E-3  -8.992095062531336  
 1.171494518176572E8    -7.803749447037855E-3  -9.087019043476815  
 1.183015964608579E8    -6.015896976074363E-3  -9.166976549938374  
