!    27/01/2025   08:23:54
! Ref Plane: 0.000 mm
# MHZ S MA R  50
!
2500.0000     1.00344       158.31
2500.5000     1.00299       158.26
2501.0000     1.00322       158.18
2501.5000     1.00326       158.08
2502.0000     1.0034        158.03
2502.5000     1.0029        157.96
2503.0000     1.00322       157.87
2503.5000     1.00324       157.81
2504.0000     1.00345       157.73
2504.5000     1.00334       157.65
2505.0000     1.00342       157.58
2505.5000     1.00338       157.50
2506.0000     1.00333       157.43
2506.5000     1.00318       157.36
2507.0000     1.00314       157.29
2507.5000     1.00352       157.21
2508.0000     1.00324       157.15
2508.5000     1.00335       157.07
2509.0000     1.00319       157.01
2509.5000     1.00321       156.93
2510.0000     1.00319       156.86
2510.5000     1.00291       156.79
2511.0000     1.00321       156.72
2511.5000     1.00331       156.66
2512.0000     1.00326       156.58
2512.5000     1.00339       156.51
2513.0000     1.00317       156.44
2513.5000     1.00335       156.37
2514.0000     1.0029        156.30
2514.5000     1.00328       156.23
2515.0000     1.00352       156.15
2515.5000     1.00295       156.10
2516.0000     1.00325       156.04
2516.5000     1.00296       155.96
2517.0000     1.00327       155.89
2517.5000     1.00305       155.82
2518.0000     1.00298       155.76
2518.5000     1.00301       155.68
2519.0000     1.00297       155.61
2519.5000     1.00322       155.55
2520.0000     1.00292       155.47
2520.5000     1.00288       155.40
2521.0000     1.00309       155.33
2521.5000     1.00287       155.27
2522.0000     1.00297       155.20
2522.5000     1.00312       155.12
2523.0000     1.00316       155.06
2523.5000     1.00274       154.99
2524.0000     1.00302       154.92
2524.5000     1.00322       154.84
2525.0000     1.003         154.79
2525.5000     1.00294       154.71
2526.0000     1.00308       154.64
2526.5000     1.00282       154.57
2527.0000     1.00295       154.51
2527.5000     1.003         154.42
2528.0000     1.00297       154.36
2528.5000     1.00306       154.27
2529.0000     1.00313       154.20
2529.5000     1.00288       154.13
2530.0000     1.00292       154.06
2530.5000     1.0029        153.99
2531.0000     1.003         153.92
2531.5000     1.00291       153.84
2532.0000     1.00307       153.77
2532.5000     1.00273       153.69
2533.0000     1.00271       153.63
2533.5000     1.00299       153.55
2534.0000     1.00284       153.46
2534.5000     1.00294       153.41
2535.0000     1.00269       153.32
2535.5000     1.00256       153.25
2536.0000     1.00266       153.19
2536.5000     1.00242       153.10
2537.0000     1.0025        153.04
2537.5000     1.00285       152.97
2538.0000     1.00257       152.89
2538.5000     1.0026        152.83
2539.0000     1.0027        152.75
2539.5000     1.00265       152.68
2540.0000     1.00238       152.60
2540.5000     1.00252       152.53
2541.0000     1.00253       152.45
2541.5000     1.00254       152.37
2542.0000     1.00222       152.32
2542.5000     1.00235       152.24
2543.0000     1.00233       152.17
2543.5000     1.00205       152.10
2544.0000     1.00224       152.02
2544.5000     1.00222       151.95
2545.0000     1.00228       151.88
2545.5000     1.00193       151.80
2546.0000     1.00217       151.74
2546.5000     1.00201       151.67
2547.0000     1.00186       151.57
2547.5000     1.00173       151.52
2548.0000     1.00194       151.43
2548.5000     1.0017        151.38
2549.0000     1.00184       151.31
2549.5000     1.00188       151.23
2550.0000     1.00178       151.16
2550.5000     1.00166       151.08
