!    3/19/2024   3:16:14 PM 
! Ref Plane: 0.000 mm
# MHZ S MA R  50
!
3000.0000     1.00233       80.10         1.00E0        0.05           
3000.5500     1.0022        80.00         9.947E-1      -24.66         
3001.1000     1.00202       79.93         9.923E-1      -48.94         
3001.6500     1.00225       79.85         9.888E-1      -73.17         
3002.2000     1.0022        79.78         9.867E-1      -97.46         
3002.7500     1.00198       79.70         9.86E-1       -121.69        
3003.3000     1.00219       79.61         9.84E-1       -145.83        
3003.8500     1.00205       79.53         9.818E-1      -170.01        
3004.4000     1.00221       79.44         9.804E-1      165.80         
3004.9500     1.00229       79.37         9.785E-1      141.64         
3005.5000     1.00222       79.28         9.772E-1      117.49         
3006.0500     1.00226       79.19         9.758E-1      93.29          
3006.6000     1.00236       79.12         9.752E-1      69.18          
3007.1500     1.00232       79.04         9.737E-1      45.05          
3007.7000     1.00235       78.95         9.714E-1      20.89          
3008.2500     1.00229       78.87         9.711E-1      -3.23          
3008.8000     1.00227       78.80         9.703E-1      -27.39         
3009.3500     1.00215       78.72         9.693E-1      -51.48         
3009.9000     1.00222       78.63         9.69E-1       -75.63         
3010.4500     1.00228       78.55         9.677E-1      -99.70         
3011.0000     1.00238       78.48         9.673E-1      -123.83        
3011.5500     1.00235       78.39         9.657E-1      -148.00        
3012.1000     1.00225       78.30         9.653E-1      -172.11        
3012.6500     1.00248       78.23         9.648E-1      163.74         
3013.2000     1.00241       78.15         9.641E-1      139.63         
3013.7500     1.00239       78.07         9.64E-1       115.52         
3014.3000     1.00224       78.00         9.625E-1      91.42          
3014.8500     1.00233       77.92         9.616E-1      67.28          
3015.4000     1.00229       77.84         9.617E-1      43.11          
3015.9500     1.00223       77.75         9.61E-1       18.99          
3016.5000     1.00236       77.66         9.606E-1      -5.14          
3017.0500     1.00216       77.59         9.60E-1       -29.26         
3017.6000     1.00237       77.51         9.592E-1      -53.36         
3018.1500     1.00213       77.43         9.585E-1      -77.50         
3018.7000     1.00235       77.35         9.58E-1       -101.65        
3019.2500     1.00227       77.28         9.58E-1       -125.78        
3019.8000     1.00217       77.20         9.569E-1      -149.88        
3020.3500     1.00221       77.12         9.568E-1      -174.01        
3020.9000     1.00216       77.03         9.56E-1       161.88         
3021.4500     1.00208       76.95         9.558E-1      137.67         
3022.0000     1.00219       76.88         9.55E-1       113.64         
3022.5500     1.00201       76.80         9.551E-1      89.53          
3023.1000     1.00203       76.72         9.533E-1      65.33          
3023.6500     1.00202       76.64         9.53E-1       41.24          
3024.2000     1.00199       76.57         9.53E-1       17.12          
3024.7500     1.00194       76.50         9.526E-1      -7.01          
3025.3000     1.0018        76.41         9.525E-1      -31.14         
3025.8500     1.00184       76.34         9.524E-1      -55.23         
3026.4000     1.00176       76.26         9.51E-1       -79.35         
3026.9500     1.00168       76.19         9.508E-1      -103.48        
3027.5000     1.00141       76.11         9.501E-1      -127.58        
3028.0500     1.00158       76.03         9.50E-1       -151.70        
3028.6000     1.00154       75.96         9.494E-1      -175.85        
3029.1500     1.0018        75.87         9.49E-1       160.05         
3029.7000     1.00156       75.81         9.49E-1       135.92         
3030.2500     1.00152       75.74         9.482E-1      111.82         
3030.8000     1.00142       75.66         9.472E-1      87.68          
3031.3500     1.00164       75.57         9.466E-1      63.55          
3031.9000     1.00146       75.51         9.466E-1      39.49          
3032.4500     1.00124       75.44         9.469E-1      15.33          
3033.0000     1.00115       75.37         9.468E-1      -8.77          
3033.5500     1.00127       75.29         9.465E-1      -32.91         
3034.1000     1.00134       75.21         9.453E-1      -57.04         
3034.6500     1.00099       75.13         9.445E-1      -81.15         
3035.2000     1.00114       75.07         9.439E-1      -105.22        
3035.7500     1.00112       74.99         9.435E-1      -129.28        
3036.3000     1.00104       74.91         9.444E-1      -153.41        
3036.8500     1.001         74.85         9.446E-1      -177.54        
3037.4000     1.00102       74.78         9.447E-1      158.32         
3037.9500     1.00088       74.70         9.434E-1      134.16         
3038.5000     1.00073       74.63         9.423E-1      110.03         
3039.0500     1.00081       74.55         9.412E-1      85.91          
3039.6000     1.0007        74.49         9.412E-1      61.87          
3040.1500     1.00053       74.41         9.414E-1      37.79          
3040.7000     1.0007        74.33         9.423E-1      13.74          
3041.2500     1.00047       74.27         9.43E-1       -10.39         
3041.8000     1.0004        74.21         9.43E-1       -34.55         
3042.3500     1.00034       74.12         9.422E-1      -58.70         
3042.9000     1.00032       74.06         9.417E-1      -82.82         
3043.4500     1.00034       73.98         9.404E-1      -106.97        
3044.0000     1.00018       73.92         9.397E-1      -131.04        
3044.5500     1.00011       73.84         9.399E-1      -155.09        
3045.1000     1.00024       73.80         9.407E-1      -179.19        
3045.6500     1.00011       73.73         9.419E-1      156.71         
3046.2000     1.00004       73.64         9.424E-1      132.54         
3046.7500     0.99994       73.57         9.422E-1      108.33         
3047.3000     0.99996       73.51         9.407E-1      84.16          
3047.8500     0.99995       73.44         9.39E-1       60.09          
3048.4000     0.99984       73.36         9.381E-1      36.04          
3048.9500     0.99978       73.30         9.379E-1      12.02          
3049.5000     0.99974       73.23         9.392E-1      -12.04         
3050.0500     1.00003       73.16         9.413E-1      -36.16         
3050.6000     0.99969       73.08         9.428E-1      -60.37         
3051.1500     0.99993       73.03         9.428E-1      -84.59         
3051.7000     0.99962       72.96         9.413E-1      -108.78        
3052.2500     0.99965       72.89         9.387E-1      -132.93        
