!Agilent N9914A: A.07.26
!Date: Monday, 20 February 2023 13:10:43
!Model: N9914A
!Serial: MY53102584
!GPS Latitude: 
!GPS Longitude: 
!GPS TimeStamp: 0001-01-01 00:00:00Z
!GPS Seconds Since Last Read: 0
!CHECKSUM:0668027985
!Correction: S11(ON U)
!S1P File: Measurement: S11:
# Hz S DB R 50
30000	0.0208282451355141	0.0250848291547498
329997	0.016695877516933	-0.263744166467555
629994	0.0136304376640814	-0.496331492679199
929991	0.0158492949934421	-0.737117464333882
1229988	0.0172883640047367	-0.983071910520128
1529985	0.0198284619180398	-1.24123246045539
1829982	0.0201791670637527	-1.51111420213149
2129979	-0.00188928493576023	-1.8528726281098
2429976	-0.00513625131713893	-2.13782674418555
2729973	-0.0930172439499345	-2.42674319187987
3029970	-0.0257116947660415	-2.74645178465892
3329967	-0.0365014494582442	-3.05822244183974
3629964	-0.0563289631882474	-3.41097040706379
3929961	-0.0978941719360822	-3.72218253445331
4229958	-0.163681325714562	-3.94632058511759
4529955	-0.192652199613309	-4.00979307090522
4829952	-0.251503072581091	-3.83976921404875
5129949	-0.233073791971636	-3.53826785796851
5429946	-0.205964437206009	-3.53156466198586
5729943	-0.161508175488968	-3.63580843946516
6029940	-0.129201834844427	-3.91355686179733
6329937	-0.11095290659945	-4.2032828550337
6629934	-0.11184354829119	-4.55543924508489
6929931	-0.0991884840214089	-4.82245923904419
7229928	-0.0902363547414173	-5.15497742425278
7529925	-0.0915640594175118	-5.48822957029291
7829922	-0.0909911414664456	-5.82906540307745
8129919	-0.094080303869674	-6.18608511742436
8429916	-0.100599699599689	-6.55284994582235
8729913	-0.106847141767157	-6.9257031641295
9029910	-0.123855498832608	-7.27617419293793
9329907	-0.132534250137504	-7.61597464683444
9629904	-0.145983329697604	-7.96783832276845
9929901	-0.162413147820627	-8.35258390239597
10229898	-0.180055997076174	-8.69649640229198
10529895	-0.180795419567584	-9.08463854889287
10829892	-0.214421999131219	-9.52450442320667
11129889	-0.245590116704726	-9.92355373815111
11429886	-0.277506534453011	-10.3199284516894
11729883	-0.317343404211255	-10.6272174212773
12029880	-0.348925852601957	-10.9147086802173
12329877	-0.376237581639651	-11.124953723345
12629874	-0.375879149451776	-11.3324167220413
12929871	-0.374533007674973	-11.7119042755892
13229868	-0.361619383424007	-12.1569249702514
13529865	-0.352401821267174	-12.7824552958313
13829862	-0.367146237393157	-13.3592080274162
14129859	-0.359151916072301	-13.9431402596063
14429856	-0.354606383380312	-14.7904360622947
14729853	-0.370711036915092	-15.7948797492415
15029850	-0.410649005266442	-16.8605789155162
15329847	-0.470133610852296	-17.9400602501071
15629844	-0.543598035624534	-18.9940880259
15929841	-0.61732431074672	-20.1662985645316
16229838	-0.699640698239565	-21.4604787218902
16529835	-0.794223167875562	-23.008212667668
16829832	-0.913432048259137	-24.8906400023092
17129829	-1.07778066984108	-27.1723987186327
17429826	-1.2965183234878	-30.2000505391757
17729823	-1.68804567104886	-34.3206379428962
18029820	-2.37689358009271	-39.5079762663135
18329817	-3.67098909177796	-46.0433486805525
18629814	-6.3594781265261	-52.4445096708653
18929811	-12.1933570343661	-42.3881269794334
19229808	-11.854739220657	21.0404141732835
19529805	-6.45928462218077	29.110443032332
19829802	-3.94470969805372	23.2623272499378
20129799	-2.72629632669721	17.1592907259997
20429796	-2.07688401305109	12.3015294704606
20729793	-1.71690629405251	8.29224994285869
21029790	-1.56152430609651	5.37309200772503
21329787	-1.43544695232223	3.65921598377379
21629784	-1.29433289693785	1.92885035744969
21929781	-1.17960643396826	0.36460604740676
22229778	-1.12418148895205	-1.05944805409912
22529775	-1.02517911739831	-2.15040795735503
22829772	-0.952056304844486	-3.71913576894661
23129769	-0.945751831797655	-5.16361302610695
23429766	-0.955409732192593	-6.23615326217038
23729763	-0.930676558123554	-7.30540774430049
24029760	-0.929354386515343	-8.69870901823263
24329757	-1.00935084012511	-10.0504761516398
24629754	-1.13274250878658	-10.9934475804739
24929751	-1.23623820231112	-11.5259799546625
25229748	-1.28718673095617	-11.9175651964101
25529745	-1.34496860532883	-12.5749373011509
25829742	-1.42580603342082	-13.2407654051638
26129739	-1.50338334570199	-13.6326965531529
