!Agilent N9914A: A.07.26
!Date: Monday, 20 February 2023 13:56:21
!Model: N9914A
!Serial: MY53102584
!GPS Latitude: 
!GPS Longitude: 
!GPS TimeStamp: 0001-01-01 00:00:00Z
!GPS Seconds Since Last Read: 0
!CHECKSUM:1681958176
!Correction: S11(ON U)
!S1P File: Measurement: S11:
# Hz S DB R 50
30000	-1.04450615726349	-0.0855478370855487
329997	-1.06051517100518	-1.28482649329693
629994	-1.07717036480852	-2.36756225622098
929991	-1.0923737544747	-3.42410564928719
1229988	-1.1081759129903	-4.48461573995606
1529985	-1.12685812638658	-5.5111898987743
1829982	-1.1500373446922	-6.5686958751215
2129979	-1.19216609965937	-7.63365993612379
2429976	-1.2221752511136	-8.64037331542786
2729973	-1.41974274148012	-9.73356271649787
3029970	-1.28498219842419	-10.6524275246638
3329967	-1.32187747535014	-11.6577630135893
3629964	-1.35919078229297	-12.6739911979684
3929961	-1.39873492542302	-13.6539550623555
4229958	-1.43859519981574	-14.6480528266534
4529955	-1.47591392123723	-15.628618558571
4829952	-1.52144106867276	-16.6573298798365
5129949	-1.56878075353208	-17.6565208112503
5429946	-1.62007451304864	-18.6483674427218
5729943	-1.66468388938667	-19.6696105822852
6029940	-1.72041529397224	-20.696193805231
6329937	-1.77318879381233	-21.6734644202353
6629934	-1.82452840964948	-22.6971593841703
6929931	-1.89284334613134	-23.7320912249559
7229928	-1.94858907371036	-24.7853740621188
7529925	-2.01256143261933	-25.8254713285334
7829922	-2.07882352241276	-26.8596244172772
8129919	-2.14790630352413	-27.9271941642073
8429916	-2.22620442954231	-28.9862379864398
8729913	-2.30458760255205	-30.057936458969
9029910	-2.38367385823245	-31.1566142000711
9329907	-2.46279553175977	-32.2520596170689
9629904	-2.54421320486599	-33.3674240744326
9929901	-2.62420279965566	-34.5100792947568
10229898	-2.71071411462865	-35.6537899505414
10529895	-2.79076273098201	-36.8104376249953
10829892	-2.89508561207886	-37.9949863586023
11129889	-2.99001561363984	-39.1908942352644
11429886	-3.09957339620659	-40.407461840723
11729883	-3.20525600186368	-41.6178610252994
12029880	-3.31640790885406	-42.8481783397688
12329877	-3.43797788619823	-44.0639547536593
12629874	-3.55542500034031	-45.328054787361
12929871	-3.68405001612531	-46.650870576457
13229868	-3.81518804556451	-47.9245474639727
13529865	-3.95419629182855	-49.2650801563119
13829862	-4.09759160558179	-50.6092464704589
14129859	-4.24371512884153	-51.9547907265187
14429856	-4.3963696735705	-53.2921011012697
14729853	-4.56393837329286	-54.7061450989754
15029850	-4.73531268175789	-56.1400516986296
15329847	-4.90627175269865	-57.5629773988466
15629844	-5.09723213202784	-58.9922334864567
15929841	-5.28452047614727	-60.4611128757211
16229838	-5.48815385844008	-61.9454184877952
16529835	-5.69744863073646	-63.4577030168351
16829832	-5.91105511693316	-64.9398554019331
17129829	-6.13380487602757	-66.4110888681013
17429826	-6.35842522733983	-68.0134118683587
17729823	-6.59495943701535	-69.5861471050485
18029820	-6.84034320644822	-71.1630913342626
18329817	-7.08556252944805	-72.695027826387
18629814	-7.33142845921151	-74.3100033964719
18929811	-7.58654282705669	-75.8932986307693
19229808	-7.8448484525826	-77.4393836067261
19529805	-8.1100904042262	-79.0970974210532
19829802	-8.34528712134412	-80.6379408849869
20129799	-8.58664952521416	-82.2525605504766
20429796	-8.81381346232284	-83.876039747394
20729793	-9.01355121407254	-85.4205870186134
21029790	-9.18925005385651	-87.0303852933122
21329787	-9.31935842916788	-88.6783584282822
21629784	-9.38589279931545	-90.4714736255738
21929781	-9.41447591042498	-92.3413881710755
22229778	-9.32626164178601	-94.4421320946239
22529775	-9.15618232806037	-96.8705993856944
22829772	-8.87087556332792	-99.8041973271668
23129769	-8.4492404527897	-103.443628176958
23429766	-7.91725720980824	-108.052525698879
23729763	-7.25637406573043	-114.035002449197
24029760	-6.53065405314137	-121.412782600957
24329757	-5.78524154918297	-130.579530131522
24629754	-5.13191954742314	-141.528523415577
24929751	-4.65539363535378	-153.808525362063
25229748	-4.41772804306938	-166.6449824196
25529745	-4.42230565909191	-179.179629880419
25829742	-4.60281825653171	169.342825143486
26129739	-4.8767795845743	159.085147114768
