# HZ S RI R 50
50000 1.00918 -0.01937 0.015991 0.009484 0 0 0 0
30049499 0.774528 -0.343648 0.099036 -0.017874 0 0 0 0
60048998 0.580512 -0.562989 0.089827 -0.013936 0 0 0 0
90048497 0.330515 -0.678921 0.110442 -0.011997 0 0 0 0
120047996 0.084663 -0.681225 0.144805 -0.059079 0 0 0 0
150047495 -0.089258 -0.589661 0.135656 -0.15654 0 0 0 0
180046994 -0.136395 -0.540778 0.00711 -0.254986 0 0 0 0
210046493 -0.270035 -0.54848 -0.203626 -0.195459 0 0 0 0
240045992 -0.431065 -0.535579 -0.297205 0.027864 0 0 0 0
270045491 -0.694694 -0.433097 -0.181791 0.226698 0 0 0 0
300044990 -0.887809 -0.151334 -0.01691 0.243591 0 0 0 0
330044489 -0.882589 0.251729 0.048288 0.19014 0 0 0 0
360043988 -0.718654 0.573784 0.066448 0.175595 0 0 0 0
390043487 -0.453675 0.789261 0.097287 0.176108 0 0 0 0
420042986 -0.135671 0.88539 0.129078 0.158419 0 0 0 0
450042485 0.188155 0.85633 0.139515 0.143485 0 0 0 0
480041984 0.477489 0.711616 0.14905 0.149798 0 0 0 0
510041483 0.684526 0.478377 0.183246 0.162755 0 0 0 0
540040982 0.785389 0.190906 0.233067 0.148757 0 0 0 0
570040481 0.76411 -0.114893 0.260976 0.121395 0 0 0 0
600039980 0.620824 -0.373697 0.294232 0.107418 0 0 0 0
630039479 0.389055 -0.552522 0.354769 0.073642 0 0 0 0
660038978 0.106861 -0.607815 0.395575 -0.026492 0 0 0 0
690038477 -0.173923 -0.529016 0.350925 -0.125542 0 0 0 0
720037976 -0.373045 -0.292991 0.276747 -0.16999 0 0 0 0
750037475 -0.379616 -0.014487 0.217088 -0.146265 0 0 0 0
780036974 -0.099123 0.243138 0.130688 -0.079897 0 0 0 0
810036473 0.190611 0.143263 0.193183 0.016198 0 0 0 0
840035972 0.292645 -0.135698 0.347313 0.042347 0 0 0 0
870035471 0.131046 -0.367462 0.466403 -0.13021 0 0 0 0
900034970 -0.104828 -0.459194 0.401245 -0.284202 0 0 0 0
930034469 -0.375557 -0.399347 0.318098 -0.338101 0 0 0 0
960033968 -0.576786 -0.186436 0.267342 -0.38412 0 0 0 0
990033467 -0.643665 0.097573 0.171826 -0.434997 0 0 0 0
1020032966 -0.594037 0.382867 0.080218 -0.408194 0 0 0 0
1050032465 -0.392625 0.628606 0.022286 -0.325745 0 0 0 0
1080031964 -0.124301 0.718995 0.052223 -0.295559 0 0 0 0
1110031463 0.126892 0.752484 0.042266 -0.347447 0 0 0 0
1140030962 0.411477 0.668279 -0.047991 -0.33906 0 0 0 0
1170030461 0.651184 0.478677 -0.078478 -0.250504 0 0 0 0
1200029960 0.77126 0.16437 -0.019222 -0.193205 0 0 0 0
1230029459 0.69541 -0.136954 0.06432 -0.229684 0 0 0 0
1260028958 0.526153 -0.31584 0.047296 -0.348443 0 0 0 0
1290028457 0.339841 -0.393413 -0.056323 -0.368116 0 0 0 0
1320027956 0.18582 -0.403383 -0.108537 -0.343167 0 0 0 0
1350027455 0.061349 -0.374694 -0.143864 -0.333732 0 0 0 0
1380026954 -0.012916 -0.29623 -0.206178 -0.322655 0 0 0 0
1410026453 -0.007194 -0.26532 -0.271224 -0.264413 0 0 0 0
1440025952 -0.051581 -0.318993 -0.290018 -0.181291 0 0 0 0
1470025451 -0.193954 -0.337059 -0.266837 -0.105984 0 0 0 0
1500024950 -0.347568 -0.266095 -0.220084 -0.078796 0 0 0 0
1530024449 -0.455479 -0.125364 -0.203054 -0.084859 0 0 0 0
1560023948 -0.489143 0.059926 -0.213783 -0.064192 0 0 0 0
1590023447 -0.467505 0.259843 -0.198866 -0.020991 0 0 0 0
1620022946 -0.365369 0.439848 -0.160572 -0.005612 0 0 0 0
1650022445 -0.204162 0.569689 -0.132855 -0.016 0 0 0 0
1680021944 -0.013968 0.615545 -0.132774 -0.035881 0 0 0 0
1710021443 0.169118 0.606168 -0.152746 -0.023965 0 0 0 0
1740020942 0.336419 0.536626 -0.143849 0.006868 0 0 0 0
1770020441 0.481815 0.434013 -0.117395 0.021382 0 0 0 0
1800019940 0.586319 0.290948 -0.095178 0.018243 0 0 0 0
1830019439 0.652043 0.127883 -0.085722 0.012142 0 0 0 0
1860018938 0.653374 -0.050511 -0.076018 0.016517 0 0 0 0
1890018437 0.621986 -0.234724 -0.046864 0.008264 0 0 0 0
1920017936 0.540028 -0.433612 -0.046765 -0.029711 0 0 0 0
1950017435 0.367628 -0.609536 -0.070046 -0.038723 0 0 0 0
1980016934 0.114212 -0.69161 -0.087296 -0.033893 0 0 0 0
2010016433 -0.184831 -0.631467 -0.103759 -0.01115 0 0 0 0
2040015932 -0.408296 -0.453388 -0.076988 0.016112 0 0 0 0
2070015431 -0.50895 -0.237643 -0.054538 -0.003613 0 0 0 0
2100014930 -0.546357 -0.059677 -0.061583 -0.020511 0 0 0 0
2130014429 -0.546749 0.116262 -0.083659 -0.028645 0 0 0 0
2160013928 -0.495267 0.332017 -0.13608 0.008866 0 0 0 0
2190013427 -0.329655 0.527641 -0.079793 0.107654 0 0 0 0
2220012926 -0.12545 0.600737 0.012581 0.083778 0 0 0 0
2250012425 0.054517 0.614288 0.048015 0.036171 0 0 0 0
2280011924 0.211906 0.555867 0.075678 -0.005492 0 0 0 0
2310011423 0.329174 0.473694 0.088364 -0.096047 0 0 0 0
2340010922 0.450828 0.367942 0.007782 -0.151312 0 0 0 0
2370010421 0.516465 0.246744 -0.041724 -0.156205 0 0 0 0
2400009920 0.53884 0.142071 -0.096505 -0.160676 0 0 0 0
2430009419 0.548208 0.037612 -0.142649 -0.144491 0 0 0 0
2460008918 0.512866 -0.085935 -0.202745 -0.1084 0 0 0 0
2490008417 0.475587 -0.203631 -0.222408 -0.016557 0 0 0 0
2520007916 0.393896 -0.333263 -0.188266 0.04301 0 0 0 0
2550007415 0.274311 -0.409743 -0.142703 0.072767 0 0 0 0
2580006914 0.139328 -0.442509 -0.110115 0.069291 0 0 0 0
2610006413 0.028108 -0.444194 -0.103195 0.074937 0 0 0 0
2640005912 -0.113708 -0.413684 -0.066735 0.097523 0 0 0 0
2670005411 -0.293968 -0.341829 -0.022265 0.082345 0 0 0 0
2700004910 -0.44005 -0.204767 0.005966 0.055569 0 0 0 0
2730004409 -0.461646 -0.001703 0.021794 0.017403 0 0 0 0
2760003908 -0.389883 0.165907 0.003874 -0.024298 0 0 0 0
2790003407 -0.316189 0.260498 -0.014749 -0.031897 0 0 0 0
2820002906 -0.250512 0.37285 -0.029684 -0.048604 0 0 0 0
2850002405 -0.159085 0.474583 -0.052162 -0.054263 0 0 0 0
2880001904 -0.03867 0.524615 -0.069891 -0.054246 0 0 0 0
2910001403 0.1045 0.544172 -0.097859 -0.057134 0 0 0 0
2940000902 0.266322 0.514859 -0.124615 -0.024197 0 0 0 0
