EC-Lab ASCII FILE
Nb header lines : 68                          

Potentio Electrochemical Impedance Spectroscopy

Run on channel : 1 (SN 5304)
User : 
Electrode connection : standard
Ewe ctrl range : min = -10.00 V, max = 10.00 V
Ewe,I filtering : 50 kHz
Safety Limits :
	Do not start on E overload
Channel : Grounded
Acquisition started on : 03/02/2021 16:17:59
Technique started on : 03/02/2021 16:25:27
Saved on :
	File : Batch_1_1_20210210_CP_100mA_-3.33V_03_PEIS_C01.mpr
	Directory : C:\EmpaDaten\Alessandro\2021_03_02_spAg_Porex_01\
	Host : 10.1.1.100
Device : SP-240 (SN 0200)
Address : USB
EC-Lab for windows v11.33 (software)
Internet server v11.32 (firmware)
Command interpretor v11.33 (firmware)
Electrode material : 
Initial state : 
Electrolyte : 
Comments : 
Cable : standard
Reference electrode : SCE Saturated Calomel Electrode (0.241 V)
Electrode surface area : 0.001 cm²
Characteristic mass : 0.001 g
Equivalent Weight : 0.000 g/eq.
Density : 0.000 g/cm3
Record Ece
Text export
   Mode : Standard
   Time format : Elapsed
Cycle Definition : Charge/Discharge alternance
Mode                Single sine         
E (V)               0.0000              
vs.                 Emeas               
tE (h:m:s)          0:00:0.0000         
record              0                   
dI                  0.000               
unit dI             mA                  
dt (s)              0.000               
fi                  200.000             
unit fi             kHz                 
ff                  1.000               
unit ff             Hz                  
Nd                  6                   
Points              per decade          
spacing             Logarithmic         
Va (mV)             10.0                
pw                  0.10                
Na                  2                   
corr                0                   
E range min (V)     -10.000             
E range max (V)     10.000              
I Range             1 A                 
Bandwidth           8                   
nc cycles           0                   
goto Ns'            0                   
nr cycles           0                   
inc. cycle          0                   

freq/Hz	Re(Z)/Ohm	-Im(Z)/Ohm	|Z|/Ohm	Phase(Z)/deg	time/s	<Ewe>/V	<I>/mA	Cs/µF	Cp/µF	cycle number	I Range	|Ewe|/V	|I|/A	(Q-Qo)/mA.h	<Ece>/V	|Ece|/V	Phase(Zce)/deg	|Zce|/Ohm	Re(Zce)/Ohm	-Im(Zce)/Ohm	Phase(Zwe-ce)/deg	|Zwe-ce|/Ohm	Re(Zwe-ce)/Ohm	-Im(Zwe-ce)/Ohm	Re(Y)/Ohm-1	Im(Y)/Ohm-1	|Y|/Ohm-1	Phase(Y)/deg	dq/mA.h	
1.9999814E+005	1.0512296E+001	7.3047662E-001	1.0537644E+001	-3.9749699E+000	4.481567263361649E+002	-3.5914290E+000	-1.0988599E+002	1.0894012E+000	5.2349605E-003	1.000000000000000E+000	37	9.6822325E-003	9.1882324E-004	-1.767531756553054E-002	4.9741406E+000	3.0631097E-002	-4.5543745E-001	3.3337311E+001	3.3336258E+001	2.6499158E-001	-1.3005294E+000	4.3859852E+001	4.3848553E+001	9.9546820E-001	9.4669580E-002	6.5783840E-003	9.4897866E-002	3.9749699E+000	-1.767531756553054E-002
1.3490944E+005	1.0351303E+001	5.6292540E-001	1.0366598E+001	-3.1127977E+000	4.485337004874018E+002	-3.5913997E+000	-1.0939337E+002	2.0956895E+000	6.1795395E-003	1.000000000000000E+000	37	1.0364688E-002	9.9981576E-004	-2.904289998838140E-002	4.8259120E+000	3.1605583E-002	-5.1532470E-002	3.1611406E+001	3.1611393E+001	2.8431652E-002	-8.0738425E-001	4.1966862E+001	4.1962696E+001	5.9135705E-001	9.6321329E-002	5.2381549E-003	9.6463658E-002	3.1127977E+000	-1.136758242285086E-002
9.0994281E+004	1.0775446E+001	4.7740132E-001	1.0786016E+001	-2.5368049E+000	4.489106973586604E+002	-3.5913849E+000	-1.0903410E+002	3.6637211E+000	7.1774055E-003	1.000000000000000E+000	37	1.0618914E-002	9.8450750E-004	-4.042815642577244E-002	5.2002010E+000	3.4186617E-002	-5.7379806E-001	3.4724586E+001	3.4722847E+001	3.4774929E-001	-1.0389943E+000	4.5505772E+001	4.5498291E+001	8.2515061E-001	9.2621773E-002	4.1035661E-003	9.2712633E-002	2.5368049E+000	-1.138525643739105E-002
6.1377301E+004	1.0738968E+001	2.4116944E-001	1.0741675E+001	-1.2864988E+000	4.492877054832061E+002	-3.5914028E+000	-1.0880434E+002	1.0752020E+001	5.4198909E-003	1.000000000000000E+000	37	1.0613314E-002	9.8805013E-004	-5.179526835785558E-002	5.8027425E+000	3.3258364E-002	1.5555486E-001	3.3660603E+001	3.3660477E+001	-9.1386557E-002	-1.9328833E-001	4.4399696E+001	4.4399445E+001	1.4978288E-001	9.3071878E-002	2.0901538E-003	9.3095347E-002	1.2864988E+000	-1.136711193208313E-002
4.1400688E+004	1.0494842E+001	2.4511304E-001	1.0497704E+001	-1.3379326E+000	4.496647115544765E+002	-3.5914235E+000	-1.0899566E+002	1.5683615E+001	8.5504781E-003	1.000000000000000E+000	37	1.0483025E-002	9.9860167E-004	-6.313870369554973E-002	6.0774889E+000	3.3781581E-002	-7.7426130E-001	3.3828884E+001	3.3825794E+001	4.5712963E-001	-9.0775263E-001	4.4326199E+001	4.4320637E+001	7.0224267E-001	9.5232956E-002	2.2242204E-003	9.5258929E-002	1.3379326E+000	-1.134343533769416E-002
2.7928293E+004	1.0710414E+001	7.5183131E-002	1.0710678E+001	-4.0218848E-001	4.500417381323641E+002	-3.5914211E+000	-1.0990520E+002	7.5797577E+001	3.7347558E-003	1.000000000000000E+000	37	1.0327315E-002	9.6420740E-004	-7.448602551495201E-002	5.7947741E+000	3.2785453E-002	-3.7099421E-001	3.4002491E+001	3.4001778E+001	2.2016698E-001	-3.7846652E-001	4.4713169E+001	4.4712193E+001	2.9535010E-001	9.3362466E-002	6.5536983E-004	9.3364768E-002	4.0218848E-001	-1.134732181940228E-002
1.8835365E+004	1.2530541E+001	-1.3561294E+000	1.2603712E+001	6.1768475E+000	4.504187021236285E+002	-3.5914328E+000	-1.1021593E+002	-6.2308164E+000	-7.2135702E-002	1.000000000000000E+000	37	1.0162682E-002	8.0632453E-004	-8.582970309964733E-002	5.2207437E+000	3.9423432E-002	1.6201941E+000	4.8892761E+001	4.8873215E+001	-1.3823916E+000	2.5536189E+000	6.1464790E+001	6.1403755E+001	-2.7385211E+000	7.8881085E-002	-8.5369786E-003	7.9341702E-002	-6.1768475E+000	-1.134367758469532E-002
1.2702271E+004	1.0869603E+001	1.4244343E-001	1.0870537E+001	-7.5080383E-001	4.506737046157359E+002	-3.5914211E+000	-1.0949574E+002	8.7962242E+001	1.5103555E-002	1.000000000000000E+000	37	1.0569982E-002	9.7235141E-004	-9.350451896321525E-002	4.9004960E+000	3.3541474E-002	-3.7542071E-002	3.4495220E+001	3.4495213E+001	2.2602396E-002	-2.0845203E-001	4.5365116E+001	4.5364815E+001	1.6504583E-001	9.1983877E-002	1.2054256E-003	9.1991775E-002	7.5080383E-001	-7.674815863567927E-003
8.5733389E+003	1.0730996E+001	8.2671613E-002	1.0731315E+001	-4.4139805E-001	4.510507298603188E+002	-3.5912969E+000	-1.0899110E+002	2.2455035E+002	1.3326641E-002	1.000000000000000E+000	37	1.0178587E-002	9.4849401E-004	-1.048991621680641E-001	5.3396139E+000	3.2096572E-002	-9.8640108E-001	3.3839508E+001	3.3834492E+001	5.8255041E-001	-8.5518163E-001	4.4570450E+001	4.4565487E+001	6.6522205E-001	9.3182467E-002	7.1787788E-004	9.3185231E-002	4.4139805E-001	-1.139464320484880E-002
5.7805107E+003	1.0743438E+001	3.7375668E-001	1.0749937E+001	-1.9924766E+000	4.513057493123924E+002	-3.5914285E+000	-1.0894384E+002	7.3665642E+001	8.9049406E-002	1.000000000000000E+000	37	1.0342082E-002	9.6205977E-004	-1.125463462470646E-001	6.0831418E+000	3.2863811E-002	-4.9477857E-001	3.4159843E+001	3.4158569E+001	2.9498419E-001	-8.5326242E-001	4.4906986E+001	4.4902008E+001	6.6874087E-001	9.2967555E-002	3.2342763E-003	9.3023799E-002	1.9924766E+000	-7.647184079000516E-003
3.8986802E+003	1.0806683E+001	3.6294898E-001	1.0812776E+001	-1.9235904E+000	4.516110797002912E+002	-3.5913477E+000	-1.0896982E+002	1.1247523E+002	1.2672833E-001	1.000000000000000E+000	37	1.0491442E-002	9.7028201E-004	-1.217255020174334E-001	5.4783926E+000	3.2938443E-002	-1.2743095E+000	3.3947289E+001	3.3938892E+001	7.5495595E-001	-1.4311563E+000	4.4759537E+001	4.4745575E+001	1.1179049E+000	9.2431076E-002	3.1043538E-003	9.2483193E-002	1.9235904E+000	-9.179155770368874E-003
2.6296973E+003	1.0879809E+001	5.4974377E-001	1.0893689E+001	-2.8926272E+000	4.520478541743723E+002	-3.5912850E+000	-1.0944086E+002	1.1009158E+002	2.8036562E-001	1.000000000000000E+000	37	1.0525331E-002	9.6618605E-004	-1.348822604987895E-001	5.9619570E+000	3.3246890E-002	-7.8886420E-001	3.4410442E+001	3.4407181E+001	4.7375757E-001	-1.2946837E+000	4.5298557E+001	4.5286991E+001	1.0235014E+000	9.1679305E-002	4.6324455E-003	9.1796264E-002	2.8926272E+000	-1.315675848135602E-002
1.7744303E+003	1.0942859E+001	8.0074555E-001	1.0972116E+001	-4.1851692E+000	4.524941720355419E+002	-3.5913308E+000	-1.0918098E+002	1.1201254E+002	5.9658855E-001	1.000000000000000E+000	37	1.0535011E-002	9.6016214E-004	-1.483228715959307E-001	5.0525451E+000	3.3059157E-002	-1.3000147E+000	3.4430805E+001	3.4421944E+001	7.8115201E-001	-1.9971285E+000	4.5392376E+001	4.5364803E+001	1.5818975E+000	9.0897091E-002	6.6514099E-003	9.1140121E-002	4.1851692E+000	-1.344061109714126E-002
1.1969135E+003	1.1134067E+001	9.2566276E-001	1.1172479E+001	-4.7525206E+000	4.529387154699652E+002	-3.5913634E+000	-1.085165155799524E+002	1.4364966E+002	9.8607761E-001	1.000000000000000E+000	37	1.0551176E-002	9.4438990E-004	-1.617229561869229E-001	0.0000000E+000	3.3083148E-002	-1.0421615E+000	3.5031239E+001	3.5025444E+001	6.3715327E-001	-1.9391143E+000	4.6185959E+001	4.6159512E+001	1.5628160E+000	8.9197919E-002	7.4157263E-003	8.9505650E-002	4.7525206E+000	-1.340008459099218E-002
8.0732257E+002	1.1269242E+001	1.3733915E+000	1.1352622E+001	-6.9484167E+000	4.533824690110632E+002	-3.5913353E+000	-1.084591609127581E+002	1.4354190E+002	2.1007533E+000	1.000000000000000E+000	37	1.0526951E-002	9.2727051E-004	-1.750921608312428E-001	0.0000000E+000	3.2604441E-002	-5.5036438E-001	3.5161736E+001	3.5160114E+001	3.3774686E-001	-2.1106615E+000	4.6460876E+001	4.6429356E+001	1.7111384E+000	8.7438427E-002	1.0656190E-002	8.8085376E-002	6.9484167E+000	-1.336920464431990E-002
5.4447723E+002	1.1553677E+001	1.6823349E+000	1.1675517E+001	-8.2846346E+000	4.538282043922518E+002	-3.5914114E+000	-1.088017770312860E+002	1.7375127E+002	3.6074526E+000	1.000000000000000E+000	37	1.0525743E-002	9.0152270E-004	-1.885634945976411E-001	0.0000000E+000	3.1939354E-002	-1.0330739E-002	3.5428230E+001	3.5428230E+001	6.3879020E-003	-2.0585597E+000	4.7012245E+001	4.6981907E+001	1.6887228E+000	8.4755518E-002	1.2341280E-002	8.5649312E-002	8.2846346E+000	-1.347133376639834E-002
3.6723242E+002	1.2048583E+001	2.3468812E+000	1.2275023E+001	-1.1022332E+001	4.542708332932962E+002	-3.5912869E+000	-1.086731374653655E+002	1.8466646E+002	6.7503386E+000	1.000000000000000E+000	37	1.0519492E-002	8.5698342E-004	-2.019251255446797E-001	0.0000000E+000	3.0345233E-002	1.1812210E+000	3.5409359E+001	3.5401833E+001	-7.2995460E-001	-1.9516633E+000	4.7477959E+001	4.7450417E+001	1.6169266E+000	7.9963416E-002	1.5575660E-002	8.1466243E-002	1.1022332E+001	-1.336163094703854E-002
2.4770126E+002	1.3233557E+001	3.0000336E+000	1.3569348E+001	-1.2773003E+001	4.547208910213376E+002	-3.5913630E+000	-1.085399676946734E+002	2.1417352E+002	1.0468876E+001	1.000000000000000E+000	37	1.0555021E-002	7.7785761E-004	-2.154943620064449E-001	0.0000000E+000	2.7657846E-002	1.8384480E+000	3.5556438E+001	3.5538136E+001	-1.1407027E+000	-2.1832387E+000	4.8807117E+001	4.8771690E+001	1.8593309E+000	7.1871810E-002	1.6293265E-002	7.3695503E-002	1.2773003E+001	-1.356923646176522E-002
1.6708524E+002	1.4611839E+001	3.2615299E+000	1.4971420E+001	-1.2582808E+001	4.551615948555409E+002	-3.5913572E+000	-1.085054922024644E+002	2.9205234E+002	1.3860453E+001	1.000000000000000E+000	37	1.0469169E-002	6.9927698E-004	-2.287773582413735E-001	0.0000000E+000	2.3604618E-002	3.4678242E+000	3.3755749E+001	3.3693939E+001	-2.0418179E+000	-1.4464005E+000	4.8321175E+001	4.8305779E+001	1.2197120E+000	6.5189689E-002	1.4551085E-002	6.6793934E-002	1.2582808E+001	-1.328299623492857E-002
1.1272729E+002	1.4524637E+001	3.5312264E+000	1.4947730E+001	-1.3664628E+001	4.556150984504493E+002	-3.5912998E+000	-1.086446879800341E+002	3.9982089E+002	2.2313419E+001	1.000000000000000E+000	37	1.0498888E-002	7.0237339E-004	-2.424636795098864E-001	0.0000000E+000	2.5257360E-002	3.5420537E+000	3.5960018E+001	3.5891323E+001	-2.2216506E+000	-1.4879473E+000	5.0432968E+001	5.0415962E+001	1.3095758E+000	6.5006204E-002	1.5804293E-002	6.6899791E-002	1.3664628E+001	-1.368632126851296E-002
7.6046585E+001	1.4304912E+001	7.2598422E-001	1.4323322E+001	-2.9053080E+000	4.560553266046918E+002	-3.5913150E+000	-1.090133485692183E+002	2.8827915E+003	7.4059377E+000	1.000000000000000E+000	37	1.0502204E-002	7.3322403E-004	-2.557944420733369E-001	0.0000000E+000	2.6172766E-002	-4.3174481E+000	3.5695457E+001	3.5594162E+001	2.6872394E+000	-3.9130819E+000	5.0015675E+001	4.9899075E+001	3.4132237E+000	6.9726467E-002	3.5386665E-003	6.9816202E-002	2.9053080E+000	-1.333076256345048E-002
5.1296799E+001	9.1435552E-001	-2.7022423E-002	9.1475475E-001	1.6927992E+000	4.564900119320228E+002	-3.5913591E+000	-1.088339387150377E+002	-1.1481684E+005	-1.0019472E+002	1.000000000000000E+000	37	1.0488976E-002	1.1466435E-002	-2.689356965941878E-001	0.0000000E+000	5.6056672E-001	-9.1571331E-001	4.8887619E+001	4.8881374E+001	7.8129905E-001	-8.6781663E-001	4.9801441E+001	4.9795731E+001	7.5427663E-001	1.0927122E+000	-3.2293491E-002	1.0931892E+000	-1.6927992E+000	-1.314125452085085E-002
3.4590439E+001	1.0829537E+001	9.0509214E+000	1.4113754E+001	-3.9887615E+001	4.569404562467244E+002	-3.5913999E+000	-1.088014378754683E+002	5.0835986E+002	2.0906039E+002	1.000000000000000E+000	37	1.0523153E-002	7.4559555E-004	-2.825493046837333E-001	0.0000000E+000	2.9935721E-002	1.6265837E+001	4.0150082E+001	3.8542973E+001	-1.1245812E+001	2.5454497E+000	4.9421272E+001	4.9372509E+001	-2.1948910E+000	5.4365676E-002	4.5436796E-002	7.0852868E-002	3.9887615E+001	-1.361360808954554E-002
2.3334846E+001	8.4918585E+000	-1.5581422E+001	1.7745207E+001	6.1409664E+001	4.574153842426022E+002	-3.5913174E+000	-1.091775782149560E+002	-4.3773178E+002	-3.3748938E+002	1.000000000000000E+000	37	1.0510226E-002	5.9228536E-004	-2.969524959105170E-001	0.0000000E+000	2.5963414E-002	-2.1795746E+001	4.3835987E+001	4.0702301E+001	1.6276255E+001	-8.0920863E-001	4.9199066E+001	4.9194160E+001	6.9483280E-001	2.6967494E-002	-4.9481738E-002	5.6353245E-002	-6.1409664E+001	-1.440319122678374E-002
1.5740395E+001	2.0868297E+000	1.4674566E+001	1.4822205E+001	-8.1906395E+001	4.578416146361851E+002	-3.5913188E+000	-1.087275307123294E+002	6.8903174E+002	6.7537372E+002	1.000000000000000E+000	37	1.0524794E-002	7.1006938E-004	-3.098255454129668E-001	0.0000000E+000	3.5516728E-002	1.4925830E+001	5.0018673E+001	4.8331047E+001	-1.2883230E+001	-2.0348504E+000	5.0449692E+001	5.0417877E+001	1.7913361E+000	9.4986362E-003	6.6794343E-002	6.7466348E-002	8.1906395E+001	-1.287304950244972E-002
1.0614842E+001	8.2722168E+000	-5.2454228E+000	9.7951021E+000	3.2378838E+001	4.582624641228467E+002	-3.5913508E+000	-1.088016953279008E+002	-2.8584204E+003	-8.1972681E+002	1.000000000000000E+000	37	1.0605826E-002	1.0827683E-003	-3.225447503092612E-001	0.0000000E+000	4.5436624E-002	-7.9758329E+000	4.1963387E+001	4.1557461E+001	5.8226466E+000	-6.6368091E-001	4.9833019E+001	4.9829678E+001	5.7722378E-001	8.6219192E-002	-5.4671701E-002	1.0209184E-001	-3.2378838E+001	-1.271920489629441E-002
7.1608276E+000	1.7605654E+001	2.7129057E-001	1.7607744E+001	-8.8281721E-001	4.585816540580126E+002	-3.5913517E+000	-1.084516809121555E+002	8.1926094E+004	1.9448414E+001	1.000000000000000E+000	37	1.0477087E-002	5.9502717E-004	-3.321604961423129E-001	0.0000000E+000	1.8751515E-002	2.3693848E+000	3.1513712E+001	3.1486771E+001	-1.3028330E+000	1.2037363E+000	4.9103260E+001	4.9092422E+001	-1.0315424E+000	5.6786448E-002	8.7503868E-004	5.6793191E-002	8.8281721E-001	-9.615745833051748E-003
4.8314781E+000	1.2014802E+001	7.2877455E+000	1.4052284E+001	-3.1239489E+001	4.590420788798947E+002	-3.5913496E+000	-1.086615342739109E+002	4.5200884E+003	1.2157365E+003	1.000000000000000E+000	37	1.0528691E-002	7.4925122E-004	-3.460578482432837E-001	0.0000000E+000	3.0299004E-002	9.3800659E+000	4.0439045E+001	3.9898331E+001	-6.5908651E+000	-7.6909065E-001	5.1917809E+001	5.1913132E+001	6.9688034E-001	6.0844697E-002	3.6906198E-002	7.1162805E-002	3.1239489E+001	-1.389735210097082E-002
3.2579229E+000	2.9600386E+001	1.8317354E+001	3.4809601E+001	-3.1750111E+001	4.597121822450717E+002	-3.5913725E+000	-1.090460461654823E+002	2.6669604E+003	7.3848895E+002	1.000000000000000E+000	37	1.0549378E-002	3.0305944E-004	-3.663556600473788E-001	0.0000000E+000	9.1504510E-003	3.7691227E+001	3.0193586E+001	2.3892702E+001	-1.8460537E+001	1.5336090E-001	5.3493279E+001	5.3493088E+001	-1.4318275E-001	2.4428640E-002	1.5116966E-002	2.8727707E-002	3.1750111E+001	-2.029781180409507E-002
2.1969900E+000	1.5586486E+001	-4.0272337E-001	1.5591688E+001	1.4800781E+000	4.606925686649047E+002	-3.5913680E+000	-1.093328717346525E+002	-1.7988097E+005	-1.2000867E+002	1.000000000000000E+000	37	1.0505846E-002	6.7381066E-004	-3.961302330168204E-001	0.0000000E+000	2.3459237E-002	1.8493186E-001	3.4815769E+001	3.4815586E+001	-1.1237361E-001	5.8552861E-001	5.0404705E+001	5.0402073E+001	-5.1509696E-001	6.4115338E-002	-1.6566111E-003	6.4136736E-002	-1.4800781E+000	-2.977457296944164E-002
1.4830083E+000	1.7372742E+001	-4.1455436E-001	1.7377687E+001	1.3669522E+000	4.621329392933840E+002	-3.5913236E+000	-1.092927793440491E+002	-2.5887795E+005	-1.4732419E+002	1.000000000000000E+000	37	1.0505460E-002	6.0453732E-004	-4.398585967034971E-001	0.0000000E+000	2.1005007E-002	-1.9353427E-001	3.4745590E+001	3.4745392E+001	1.1736378E-001	3.2671127E-001	5.2118980E+001	5.2118134E+001	-2.9719058E-001	5.7528678E-002	-1.3727691E-003	5.7545055E-002	-1.3669522E+000	-4.372836368667665E-002
1.0000616E+000	1.8024315E+001	2.6962531E+000	1.8224865E+001	-8.5077763E+000	4.642570934476098E+002	-3.5913453E+000	-1.092900076718965E+002	5.9024555E+004	1.2918895E+003	1.000000000000000E+000	37	1.0504282E-002	5.7637092E-004	-5.043443810956172E-001	0.0000000E+000	1.9375455E-002	-5.1539073E+000	3.3616295E+001	3.3480385E+001	3.0197985E+000	-6.3328371E+000	5.1820915E+001	5.1504700E+001	5.7160516E+000	5.4266289E-002	8.1176814E-003	5.4870091E-002	8.5077763E+000	-6.448578439212010E-002