EC-Lab ASCII FILE
Nb header lines : 3                           
freq/Hz	Re(Z)/Ohm	-Im(Z)/Ohm	|Z|/Ohm	Phase(Z)/deg	time/s	<Ewe>/V	<I>/mA	Cs/µF	Cp/µF	cycle number	I Range	|Ewe|/V	|I|/A	Ns	(Q-Qo)/mA.h	Analog IN 1/V	Analog IN 2/V	Re(Y)/Ohm-1	Im(Y)/Ohm-1	|Y|/Ohm-1	Phase(Y)/deg	Re(C)/nF	Im(C)/nF	|C|/nF	Phase(C)/deg	Re(M)	Im(M)	|M|	Phase(M)/deg	Re(Permittivity)	Im(Permittivity)	|Permittivity|	Phase(Permittivity)/deg	Re(Resistivity)/Ohm.cm	Im(Resistivity)/Ohm.cm	|Resistivity|/Ohm.cm	Phase(Resistivity)/deg	Re(Conductivity)/mS/cm	Im(Conductivity)/mS/cm	|Conductivity|/mS/cm	Phase(Conductivity)/deg	Tan(Delta)	Loss Angle(Delta)/deg	dq/mA.h	x	
1.0000186E+006	1.0578955E+001	-1.7952957E+001	2.0838017E+001	5.9490868E+001	9.024693951179367E+004	6.0543278E-004	3.7260752E-002	-8.8649457E-003	-6.5801428E-003	1.000000000000000E+000	10	2.3171537E-004	1.1119838E-005	0	3.559610046780351E-005	1.5271082E+002	2.8851763E+001	2.4362957E-002	-4.1345023E-002	4.7989212E-002	-5.9490868E+001	-6.5801430E+000	3.8774121E+000	7.6375785E+000	-1.4949088E+002	0.0000000E+000	0.0000000E+000	0.0000000E+000	1.4949088E+002	0.0000000E+000	0.0000000E+000	0.0000000E+000	-1.4949088E+002	0.0000000E+000	0.0000000E+000	0.0000000E+000	5.9490868E+001	0.0000000E+000	0.0000000E+000	0.0000000E+000	-5.9490868E+001	-5.8925974E-001	-5.9490868E+001	3.559610046780351E-005	-1.328138367919837E-006
7.9167906E+005	1.2019201E+001	-1.2382506E+001	1.7256525E+001	4.5852985E+001	9.024749152931804E+004	-5.9405822E-005	5.5625715E-004	-1.6235378E-002	-8.3593559E-003	1.000000000000000E+000	10	1.1889942E-004	6.8901140E-006	0	3.571818076461386E-005	1.5271082E+002	2.8777227E+001	4.0361650E-002	-4.1581664E-002	5.7949096E-002	-4.5852985E+001	-8.3593559E+000	8.1140919E+000	1.1649777E+001	-1.3585298E+002	0.0000000E+000	0.0000000E+000	0.0000000E+000	1.3585298E+002	0.0000000E+000	0.0000000E+000	0.0000000E+000	-1.3585298E+002	0.0000000E+000	0.0000000E+000	0.0000000E+000	4.5852985E+001	0.0000000E+000	0.0000000E+000	0.0000000E+000	-4.5852985E+001	-9.7065979E-001	-4.5852985E+001	1.220802968103553E-007	-1.332693347932536E-006
6.2676294E+005	1.3119930E+001	-9.6697340E+000	1.6298353E+001	3.6391193E+001	9.024804351769574E+004	-2.2889054E-004	-5.5732685E-003	-2.6260458E-002	-9.2436587E-003	1.000000000000000E+000	10	6.9506100E-004	4.2646087E-005	0	3.500371175854363E-005	1.5265790E+002	2.8732744E+001	4.9390573E-002	-3.6402155E-002	6.1355893E-002	-3.6391193E+001	-9.2436590E+000	1.2541831E+001	1.5580204E+001	-1.2639119E+002	0.0000000E+000	0.0000000E+000	0.0000000E+000	1.2639119E+002	0.0000000E+000	0.0000000E+000	0.0000000E+000	-1.2639119E+002	0.0000000E+000	0.0000000E+000	0.0000000E+000	3.6391193E+001	0.0000000E+000	0.0000000E+000	0.0000000E+000	-3.6391193E+001	-1.3568037E+000	-3.6391193E+001	-7.144690060702276E-007	-1.306035548702260E-006
4.9619581E+005	1.3572589E+001	-7.4612751E+000	1.5488247E+001	2.8798967E+001	9.024859551919310E+004	-2.7154584E-004	-6.2665390E-003	-4.2988669E-002	-9.9764392E-003	1.000000000000000E+000	10	2.7750095E-003	1.7916872E-004	0	3.498773535604899E-005	1.5266672E+002	2.8851763E+001	5.6579378E-002	-3.1103447E-002	6.4565085E-002	-2.8798967E+001	-9.9764385E+000	1.8147850E+001	2.0709269E+001	-1.1879897E+002	0.0000000E+000	0.0000000E+000	0.0000000E+000	1.1879897E+002	0.0000000E+000	0.0000000E+000	0.0000000E+000	-1.1879897E+002	0.0000000E+000	0.0000000E+000	0.0000000E+000	2.8798967E+001	0.0000000E+000	0.0000000E+000	0.0000000E+000	-2.8798967E+001	-1.8190709E+000	-2.8798967E+001	-1.597640249464277E-008	-1.305439447644684E-006
3.9282400E+005	1.3800144E+001	-5.6674457E+000	1.4918576E+001	2.2326984E+001	9.024914750885079E+004	-2.6888089E-004	-4.5240256E-003	-7.1488261E-002	-1.0317030E-002	1.000000000000000E+000	10	6.7786588E-003	4.5437706E-004	0	3.407372307683303E-005	1.5264026E+002	2.8844549E+001	6.2005308E-002	-2.5464352E-002	6.7030527E-002	-2.2326984E+001	-1.0317029E+001	2.5121815E+001	2.7157810E+001	-1.1232698E+002	0.0000000E+000	0.0000000E+000	0.0000000E+000	1.1232698E+002	0.0000000E+000	0.0000000E+000	0.0000000E+000	-1.1232698E+002	0.0000000E+000	0.0000000E+000	0.0000000E+000	2.2326984E+001	0.0000000E+000	0.0000000E+000	0.0000000E+000	-2.2326984E+001	-2.4349849E+000	-2.2326984E+001	-9.140122792159657E-007	-1.271336420604557E-006
3.1099688E+005	1.3903704E+001	-4.3224139E+000	1.4560091E+001	1.7269539E+001	9.024969950877503E+004	-3.1060449E-004	-6.2534777E-003	-1.1839619E-001	-1.0434275E-002	1.000000000000000E+000	10	1.0189435E-002	6.9981947E-004	0	3.319273487048082E-005	1.5269318E+002	2.8731543E+001	6.5584667E-002	-2.0389106E-002	6.8680890E-002	-1.7269539E+001	-1.0434276E+001	3.3563438E+001	3.5147953E+001	-1.0726954E+002	0.0000000E+000	0.0000000E+000	0.0000000E+000	1.0726954E+002	0.0000000E+000	0.0000000E+000	0.0000000E+000	-1.0726954E+002	0.0000000E+000	0.0000000E+000	0.0000000E+000	1.7269539E+001	0.0000000E+000	0.0000000E+000	0.0000000E+000	-1.7269539E+001	-3.2166526E+000	-1.7269539E+001	-8.809882063522093E-007	-1.238465566124314E-006
2.4620509E+005	1.4015324E+001	-3.3157065E+000	1.4402195E+001	1.3310161E+001	9.025038750567334E+004	-2.9892038E-004	-4.1345148E-003	-1.9496067E-001	-1.0333366E-002	1.000000000000000E+000	10	1.0025855E-002	6.9613382E-004	0	3.414735279262014E-005	1.5260501E+002	2.8855368E+001	6.7568734E-002	-1.5985224E-002	6.9433860E-002	-1.3310161E+001	-1.0333364E+001	4.3678619E+001	4.4884296E+001	-1.0331016E+002	0.0000000E+000	0.0000000E+000	0.0000000E+000	1.0331016E+002	0.0000000E+000	0.0000000E+000	0.0000000E+000	-1.0331016E+002	0.0000000E+000	0.0000000E+000	0.0000000E+000	1.3310161E+001	0.0000000E+000	0.0000000E+000	0.0000000E+000	-1.3310161E+001	-4.2269492E+000	-1.3310161E+001	9.546179221393239E-007	-1.274083644296780E-006
1.9492280E+005	1.4102632E+001	-2.5129559E+000	1.4324775E+001	1.0103522E+001	9.025093951362418E+004	-2.9323675E-004	-3.5511937E-003	-3.2491717E-001	-9.9992352E-003	1.000000000000000E+000	10	1.0827910E-002	7.5588695E-004	0	3.187921584680832E-005	1.5272844E+002	2.8784441E+001	6.8726555E-002	-1.2246422E-002	6.9809124E-002	-1.0103522E+001	-9.9992352E+000	5.6115398E+001	5.6999321E+001	-1.0010352E+002	0.0000000E+000	0.0000000E+000	0.0000000E+000	1.0010352E+002	0.0000000E+000	0.0000000E+000	0.0000000E+000	-1.0010352E+002	0.0000000E+000	0.0000000E+000	0.0000000E+000	1.0103522E+001	0.0000000E+000	0.0000000E+000	0.0000000E+000	-1.0103522E+001	-5.6119695E+000	-1.0103522E+001	-2.268136945811820E-006	-1.189456405305984E-006
1.5431080E+005	1.4190815E+001	-1.9086772E+000	1.4318599E+001	7.6603613E+000	9.025149150936195E+004	-2.4424549E-004	1.0900354E-004	-5.4037011E-001	-9.6018584E-003	1.000000000000000E+000	10	1.0877933E-002	7.5970654E-004	0	3.295834696916993E-005	1.5262265E+002	2.8824112E+001	6.9215968E-002	-9.3096104E-003	6.9839239E-002	-7.6603613E+000	-9.6018591E+000	7.1388802E+001	7.2031639E+001	-9.7660362E+001	0.0000000E+000	0.0000000E+000	0.0000000E+000	9.7660362E+001	0.0000000E+000	0.0000000E+000	0.0000000E+000	-9.7660362E+001	0.0000000E+000	0.0000000E+000	0.0000000E+000	7.6603613E+000	0.0000000E+000	0.0000000E+000	0.0000000E+000	-7.6603613E+000	-7.4348950E+000	-7.6603613E+000	1.079131122361606E-006	-1.229720238388520E-006
1.2217006E+005	1.4273208E+001	-1.4313045E+000	1.4344793E+001	5.7264261E+000	9.025204351568595E+004	-2.5928390E-004	-8.9736859E-004	-9.1017163E-001	-9.0614725E-003	1.000000000000000E+000	10	1.0729824E-002	7.4799435E-004	0	3.384310450840187E-005	1.5271960E+002	2.8849360E+001	6.9363825E-002	-6.9557424E-003	6.9711708E-002	-5.7264261E+000	-9.0614719E+000	9.0362526E+001	9.0815727E+001	-9.5726425E+001	0.0000000E+000	0.0000000E+000	0.0000000E+000	9.5726425E+001	0.0000000E+000	0.0000000E+000	0.0000000E+000	-9.5726425E+001	0.0000000E+000	0.0000000E+000	0.0000000E+000	5.7264261E+000	0.0000000E+000	0.0000000E+000	0.0000000E+000	-5.7264261E+000	-9.9721670E+000	-5.7264261E+000	8.847575392319394E-007	-1.262731731746427E-006
9.6719125E+004	1.4342299E+001	-1.0826151E+000	1.4383101E+001	4.3167324E+000	9.025259550878371E+004	-2.4538225E-004	-8.8619022E-004	-1.5199653E+000	-8.6114611E-003	1.000000000000000E+000	10	1.0554989E-002	7.3384657E-004	0	3.440704758442007E-005	1.5269318E+002	2.8782038E+001	6.9328807E-002	-5.2332208E-003	6.9526039E-002	-4.3167324E+000	-8.6114645E+000	1.1408315E+002	1.1440771E+002	-9.4316734E+001	0.0000000E+000	0.0000000E+000	0.0000000E+000	9.4316734E+001	0.0000000E+000	0.0000000E+000	0.0000000E+000	-9.4316734E+001	0.0000000E+000	0.0000000E+000	0.0000000E+000	4.3167324E+000	0.0000000E+000	0.0000000E+000	0.0000000E+000	-4.3167324E+000	-1.3247828E+001	-4.3167324E+000	5.639430760182059E-007	-1.283773206142196E-006
7.6566211E+004	1.4393878E+001	-8.0718648E-001	1.4416493E+001	3.2096972E+000	9.025314751300134E+004	-2.5879941E-004	-1.2999194E-003	-2.5751891E+000	-8.0730487E-003	1.000000000000000E+000	10	1.0392252E-002	7.2085852E-004	0	3.605365297817884E-005	1.5266672E+002	2.8721926E+001	6.9256179E-002	-3.8837800E-003	6.9364995E-002	-3.2096972E+000	-8.0730419E+000	1.4395992E+002	1.4418610E+002	-9.3209694E+001	0.0000000E+000	0.0000000E+000	0.0000000E+000	9.3209694E+001	0.0000000E+000	0.0000000E+000	0.0000000E+000	-9.3209694E+001	0.0000000E+000	0.0000000E+000	0.0000000E+000	3.2096972E+000	0.0000000E+000	0.0000000E+000	0.0000000E+000	-3.2096972E+000	-1.7832159E+001	-3.2096972E+000	1.646605393758769E-006	-1.345210267267833E-006
6.0616465E+004	1.4443897E+001	-6.0297120E-001	1.4456477E+001	2.3904669E+000	9.025369952639239E+004	-2.4040672E-004	6.8672677E-004	-4.3544469E+000	-7.5753229E-003	1.000000000000000E+000	10	1.0254513E-002	7.0933689E-004	0	3.609548722128319E-005	1.5263147E+002	2.8848156E+001	6.9112949E-002	-2.8851714E-003	6.9173142E-002	-2.3904669E+000	-7.5753164E+000	1.8146336E+002	1.8162141E+002	-9.2390465E+001	0.0000000E+000	0.0000000E+000	0.0000000E+000	9.2390465E+001	0.0000000E+000	0.0000000E+000	0.0000000E+000	-9.2390465E+001	0.0000000E+000	0.0000000E+000	0.0000000E+000	2.3904669E+000	0.0000000E+000	0.0000000E+000	0.0000000E+000	-2.3904669E+000	-2.3954540E+001	-2.3904669E+000	4.183424310434767E-008	-1.346771159124795E-006
4.7988422E+004	1.4467879E+001	-4.3964040E-001	1.4474558E+001	1.7405308E+000	9.025425152911642E+004	-2.4394736E-004	-2.8795982E-004	-7.5437284E+000	-6.9593815E-003	1.000000000000000E+000	10	1.0182712E-002	7.0349040E-004	0	3.727358746709716E-005	1.5265790E+002	2.8836136E+001	6.9054864E-002	-2.0983936E-003	6.9086738E-002	-1.7405308E+000	-6.9593859E+000	2.2902238E+002	2.2912810E+002	-9.1740532E+001	0.0000000E+000	0.0000000E+000	0.0000000E+000	9.1740532E+001	0.0000000E+000	0.0000000E+000	0.0000000E+000	-9.1740532E+001	0.0000000E+000	0.0000000E+000	0.0000000E+000	1.7405308E+000	0.0000000E+000	0.0000000E+000	0.0000000E+000	-1.7405308E+000	-3.2908440E+001	-1.7405308E+000	1.178100245813970E-006	-1.390727663268741E-006
3.8014027E+004	1.4484980E+001	-3.1482172E-001	1.4488400E+001	1.2450908E+000	9.025480351458758E+004	-2.7053943E-004	-2.1478774E-003	-1.3298773E+001	-6.2791384E-003	1.000000000000000E+000	10	9.9726226E-003	6.8831770E-004	0	4.218889153210007E-005	1.5265790E+002	2.8731543E+001	6.9004439E-002	-1.4997669E-003	6.9020733E-002	-1.2450908E+000	-6.2791557E+000	2.8890381E+002	2.8897205E+002	-9.1245094E+001	0.0000000E+000	0.0000000E+000	0.0000000E+000	9.1245094E+001	0.0000000E+000	0.0000000E+000	0.0000000E+000	-9.1245094E+001	0.0000000E+000	0.0000000E+000	0.0000000E+000	1.2450908E+000	0.0000000E+000	0.0000000E+000	0.0000000E+000	-1.2450908E+000	-4.6010101E+001	-1.2450908E+000	4.915304065002909E-006	-1.574124266630601E-006
3.0080912E+004	1.4517379E+001	-2.2422943E-001	1.4519111E+001	8.8489652E-001	9.025535551987169E+004	-2.5093547E-004	3.7922646E-004	-2.3595900E+001	-5.6278398E-003	1.000000000000000E+000	10	1.0095775E-002	6.9534389E-004	0	4.270412445386561E-005	1.5268436E+002	2.8836136E+001	6.8866529E-002	-1.0636838E-003	6.8874739E-002	-8.8489652E-001	-5.6278315E+000	3.6436554E+002	3.6440900E+002	-9.0884895E+001	0.0000000E+000	0.0000000E+000	0.0000000E+000	9.0884895E+001	0.0000000E+000	0.0000000E+000	0.0000000E+000	-9.0884895E+001	0.0000000E+000	0.0000000E+000	0.0000000E+000	8.8489652E-001	0.0000000E+000	0.0000000E+000	0.0000000E+000	-8.8489652E-001	-6.4743416E+001	-8.8489652E-001	5.152329217655450E-007	-1.593348299679705E-006
2.3808643E+004	1.4533420E+001	-1.5568167E-001	1.4534253E+001	6.1372769E-001	9.025577151732845E+004	-2.5555692E-004	3.9786115E-004	-4.2938614E+001	-4.9264892E-003	1.000000000000000E+000	10	1.0825896E-002	7.4485393E-004	0	4.351448999403187E-005	1.5268436E+002	2.8860178E+001	6.8799034E-002	-7.3697377E-004	6.8802983E-002	-6.1372769E-001	-4.9265189E+000	4.5990469E+002	4.5993109E+002	-9.0613731E+001	0.0000000E+000	0.0000000E+000	0.0000000E+000	9.0613731E+001	0.0000000E+000	0.0000000E+000	0.0000000E+000	-9.0613731E+001	0.0000000E+000	0.0000000E+000	0.0000000E+000	6.1372769E-001	0.0000000E+000	0.0000000E+000	0.0000000E+000	-6.1372769E-001	-9.3353439E+001	-6.1372769E-001	8.103655401662588E-007	-1.623584127531365E-006
1.8853918E+004	1.4546047E+001	-9.9333808E-002	1.4546387E+001	3.9126226E-001	9.025632351218583E+004	-2.3889729E-004	1.0389566E-003	-8.4980919E+001	-3.9628288E-003	1.000000000000000E+000	10	1.0109290E-002	6.9496920E-004	0	4.353338871457446E-005	1.5268436E+002	2.8747173E+001	6.8743989E-002	-4.6944726E-004	6.8745591E-002	-3.9126226E-001	-3.9628656E+000	5.8030090E+002	5.8031445E+002	-9.0391266E+001	0.0000000E+000	0.0000000E+000	0.0000000E+000	9.0391266E+001	0.0000000E+000	0.0000000E+000	0.0000000E+000	-9.0391266E+001	0.0000000E+000	0.0000000E+000	0.0000000E+000	3.9126226E-001	0.0000000E+000	0.0000000E+000	0.0000000E+000	-3.9126226E-001	-1.4643602E+002	-3.9126226E-001	1.889872054258512E-008	-1.624289264204409E-006
1.4929112E+004	1.4562638E+001	-5.4520257E-002	1.4562740E+001	2.1450551E-001	9.025673953054938E+004	-2.3438763E-004	1.4843671E-003	-1.9553667E+002	-2.7406767E-003	1.000000000000000E+000	10	1.0449600E-002	7.1755727E-004	0	4.419427359095264E-005	1.5262265E+002	2.8777227E+001	6.8667911E-002	-2.5708202E-004	6.8668395E-002	-2.1450551E-001	-2.7407093E+000	7.3204871E+002	7.3205383E+002	-9.0214508E+001	0.0000000E+000	0.0000000E+000	0.0000000E+000	9.0214508E+001	0.0000000E+000	0.0000000E+000	0.0000000E+000	-9.0214508E+001	0.0000000E+000	0.0000000E+000	0.0000000E+000	2.1450551E-001	0.0000000E+000	0.0000000E+000	0.0000000E+000	-2.1450551E-001	-2.6710510E+002	-2.1450551E-001	6.608848763781821E-007	-1.648947767511245E-006
1.1811533E+004	1.4582429E+001	-1.0163619E-002	1.4582433E+001	3.9933838E-002	9.025715551611275E+004	-2.4122666E-004	2.1590067E-003	-1.3257617E+003	-6.4402429E-004	1.000000000000000E+000	10	1.0683921E-002	7.3265698E-004	0	4.508998018954460E-005	1.5264909E+002	2.8858974E+001	6.8575650E-002	-4.7795653E-005	6.8575665E-002	-3.9933838E-002	-6.4399874E-001	9.2402509E+002	9.2402533E+002	-9.0039932E+001	0.0000000E+000	0.0000000E+000	0.0000000E+000	9.0039932E+001	0.0000000E+000	0.0000000E+000	0.0000000E+000	-9.0039932E+001	0.0000000E+000	0.0000000E+000	0.0000000E+000	3.9933838E-002	0.0000000E+000	0.0000000E+000	0.0000000E+000	-3.9933838E-002	-1.4347673E+003	-3.9933838E-002	8.957065985919652E-007	-1.682367784995041E-006
9.3513262E+003	1.4604695E+001	6.9040745E-003	1.4604697E+001	-2.7085418E-002	9.025757756994345E+004	-2.2419431E-004	2.0136414E-003	2.4651394E+003	5.5089302E-004	1.000000000000000E+000	10	1.0839061E-002	7.4216264E-004	0	4.503254247724221E-005	1.5264026E+002	2.8839739E+001	6.8471111E-002	3.2368331E-005	6.8471119E-002	2.7085418E-002	5.5087131E-001	1.1653445E+003	1.1653446E+003	-8.9972916E+001	0.0000000E+000	0.0000000E+000	0.0000000E+000	8.9972916E+001	0.0000000E+000	0.0000000E+000	0.0000000E+000	-8.9972916E+001	0.0000000E+000	0.0000000E+000	0.0000000E+000	-2.7085418E-002	0.0000000E+000	0.0000000E+000	0.0000000E+000	2.7085418E-002	2.1153733E+003	2.7085418E-002	-5.743771230239423E-008	-1.680224706723214E-006
7.4089038E+003	1.4600965E+001	3.0697914E-002	1.4600998E+001	-1.2046178E-001	9.025808049959573E+004	-2.1312517E-004	3.3014205E-003	6.9977319E+002	3.0932140E-003	1.000000000000000E+000	10	1.0931361E-002	7.4867223E-004	0	4.618648254580977E-005	1.5267554E+002	2.8824112E+001	6.8488322E-002	1.4399379E-004	6.8488471E-002	1.2046178E-001	3.0931816E+000	1.4712372E+003	1.4712405E+003	-8.9879539E+001	0.0000000E+000	0.0000000E+000	0.0000000E+000	8.9879539E+001	0.0000000E+000	0.0000000E+000	0.0000000E+000	-8.9879539E+001	0.0000000E+000	0.0000000E+000	0.0000000E+000	-1.2046178E-001	0.0000000E+000	0.0000000E+000	0.0000000E+000	1.2046178E-001	4.7563379E+002	1.2046178E-001	1.153940068567560E-006	-1.723279762170392E-006
5.8650859E+003	1.4618134E+001	5.9727389E-002	1.4618257E+001	-2.3410019E-001	9.025868687165913E+004	-1.9301807E-004	3.8959228E-003	4.5433087E+002	7.5845206E-003	1.000000000000000E+000	10	1.0995753E-002	7.5219321E-004	0	4.650673246183497E-005	1.5264909E+002	2.8801270E+001	6.8407036E-002	2.7950035E-004	6.8407610E-002	2.3410019E-001	7.5845246E+000	1.8562930E+003	1.8563085E+003	-8.9765900E+001	0.0000000E+000	0.0000000E+000	0.0000000E+000	8.9765900E+001	0.0000000E+000	0.0000000E+000	0.0000000E+000	-8.9765900E+001	0.0000000E+000	0.0000000E+000	0.0000000E+000	-2.3410019E-001	0.0000000E+000	0.0000000E+000	0.0000000E+000	2.3410019E-001	2.4474759E+002	2.3410019E-001	3.202499160252019E-007	-1.735228717117884E-006
4.6414854E+003	1.4629777E+001	8.8486686E-002	1.4630045E+001	-3.4654334E-001	9.025958873783331E+004	-1.4525674E-004	6.4155734E-003	3.8751205E+002	1.4175871E-002	1.000000000000000E+000	10	1.0155471E-002	6.9415173E-004	0	4.761851450903002E-005	1.5265790E+002	2.8860178E+001	6.8351239E-002	4.1341537E-004	6.8352491E-002	3.4654334E-001	1.4175831E+001	2.3437405E+003	2.3437834E+003	-8.9653458E+001	0.0000000E+000	0.0000000E+000	0.0000000E+000	8.9653458E+001	0.0000000E+000	0.0000000E+000	0.0000000E+000	-8.9653458E+001	0.0000000E+000	0.0000000E+000	0.0000000E+000	-3.4654334E-001	0.0000000E+000	0.0000000E+000	0.0000000E+000	3.4654334E-001	1.6533308E+002	3.4654334E-001	1.111782047195045E-006	-1.776710800105592E-006
3.6761763E+003	1.4655093E+001	1.1509914E-001	1.4655545E+001	-4.4998413E-001	9.026026870443742E+004	-1.6795407E-004	5.5862516E-003	3.7614191E+002	2.3200210E-002	1.000000000000000E+000	10	1.0183379E-002	6.9484819E-004	0	4.929126330330554E-005	1.5274606E+002	2.8719522E+001	6.8231456E-002	5.3588068E-004	6.8233557E-002	4.4998413E-001	2.3200085E+001	2.9539861E+003	2.9540771E+003	-8.9550018E+001	0.0000000E+000	0.0000000E+000	0.0000000E+000	8.9550018E+001	0.0000000E+000	0.0000000E+000	0.0000000E+000	-8.9550018E+001	0.0000000E+000	0.0000000E+000	0.0000000E+000	-4.4998413E-001	0.0000000E+000	0.0000000E+000	0.0000000E+000	4.4998413E-001	1.2732583E+002	4.4998413E-001	1.672748794275527E-006	-1.839123306654685E-006
2.9109316E+003	1.4668847E+001	1.4089674E-001	1.4669524E+001	-5.5031866E-001	9.026094770282833E+004	-1.5953109E-004	5.9552533E-003	3.8804956E+002	3.5797853E-002	1.000000000000000E+000	10	1.0191640E-002	6.9474918E-004	0	4.980598353330990E-005	1.5272844E+002	2.8858974E+001	6.8165392E-002	6.5474003E-004	6.8168536E-002	5.5031866E-001	3.5797676E+001	3.7269373E+003	3.7271091E+003	-8.9449684E+001	0.0000000E+000	0.0000000E+000	0.0000000E+000	8.9449684E+001	0.0000000E+000	0.0000000E+000	0.0000000E+000	-8.9449684E+001	0.0000000E+000	0.0000000E+000	0.0000000E+000	-5.5031866E-001	0.0000000E+000	0.0000000E+000	0.0000000E+000	5.5031866E-001	1.0411063E+002	5.5031866E-001	5.147202300043616E-007	-1.858328210484857E-006
2.3027896E+003	1.4703375E+001	1.5650205E-001	1.4704207E+001	-6.0983068E-001	9.026162697785906E+004	-1.6443207E-004	6.1695725E-003	4.4161703E+002	5.0026793E-002	1.000000000000000E+000	10	1.0206940E-002	6.9415098E-004	0	5.019664270866067E-005	1.5272844E+002	2.8717117E+001	6.8003893E-002	7.2383037E-004	6.8007745E-002	6.0983068E-001	5.0026974E+001	4.7000200E+003	4.7002861E+003	-8.9390167E+001	0.0000000E+000	0.0000000E+000	0.0000000E+000	8.9390167E+001	0.0000000E+000	0.0000000E+000	0.0000000E+000	-8.9390167E+001	0.0000000E+000	0.0000000E+000	0.0000000E+000	-6.0983068E-001	0.0000000E+000	0.0000000E+000	0.0000000E+000	6.0983068E-001	9.3950043E+001	6.0983068E-001	3.906591753507658E-007	-1.872904229564042E-006
